# Hz S RI R 50
300000	-1.07891283142231E-03	5.27931691683388E-03	0.997237119330765	-8.16987719483207E-04			0.990701631941439	-6.75801514523712E-03	2.23383464798939E-03	1.34402937913733E-03
7383083.33333333	1.02972532982302E-03	-2.50068779023902E-02	0.996750902659727	-4.39282392180669E-02			0.995844803345056	-4.41647720632873E-02	1.41269309744041E-03	-2.49700136050835E-02
14466166.6666667	-3.07350769671521E-03	-0.049528825939108	0.990593970388322	-8.98380451034166E-02			0.993511341721281	-9.05416488109603E-02	-2.70506476033467E-03	-4.90734219895014E-02
21549250	-8.75687738051751E-03	-7.17159185548209E-02	0.983728967615002	-0.129684638863482			0.984882027500932	-0.130134507323905	-9.02959312952771E-03	-7.04861359643995E-02
28632333.3333333	-1.63746965533839E-02	-9.37476568527393E-02	0.977308469574642	-0.169053566094818			0.97523400921197	-0.171970002195358	-1.71874882971669E-02	-9.26536890625491E-02
35715416.6666667	-2.61669120372437E-02	-0.114351221158704	0.96498407572216	-0.208796719553765			0.963981642327561	-0.209928853307912	-2.55556047859887E-02	-0.112321104562298
42798500	-3.62224027541891E-02	-0.134526867577439	0.952683912503452	-0.247811075945021			0.951318899469154	-0.248416950999788	-3.66500556530384E-02	-0.132253003036259
49881583.3333333	-0.049409659291003	-0.153451157077619	0.936649644751809	-0.285544815019611			0.935573329830684	-0.286538835163534	-4.84195940476783E-02	-0.1511797852439
56964666.6666667	-6.27120292828797E-02	-0.171437578460684	0.920779085020224	-0.322417269037002			0.920092276141188	-0.323366399785206	-6.27113917910938E-02	-0.168705326296693
64047750	-7.77704731047265E-02	-0.187456811017684	0.901874835859797	-0.356067815672837			0.902346112253318	-0.357175325309579	-7.77101899694518E-02	-0.184862072110309
71130833.3333333	-9.34204919071314E-02	-0.203074686693526	0.882093917007454	-0.389906322826669			0.881189003370822	-0.391159600770629	-9.34188919191192E-02	-0.199803653189124
78213916.6666667	-0.110485460973125	-0.217379095444218	0.863738918396667	-0.424254771825356			0.860248483535739	-0.422448905962555	-0.110450007858645	-0.213418568895178
85297000	-0.128936349237706	-0.228755562416638	0.840359025078608	-0.455214436638126			0.840398239675258	-0.453350778002755	-0.128894423407803	-0.225603189219446
92380083.3333333	-0.147484263099096	-0.239305781825052	0.816607607378965	-0.482034168363171			0.816697623146668	-0.482503613429806	-0.146786046024261	-0.234936885499367
99463166.6666667	-0.166365113872257	-0.248487515248198	0.792873266806944	-0.510867965727708			0.791892678657114	-0.51199443808688	-0.166839282478338	-0.244554589398099
106546250	-0.186939296440681	-0.256675346781423	0.768258865208936	-0.536881762463404			0.767329445270144	-0.536563827139588	-0.186314878984722	-0.250943504846508
113629333.333333	-0.207081379740484	-0.263030445026838	0.74335605358722	-0.562060122370004			0.741663798554848	-0.562050668549742	-0.205222398558646	-0.258394344838713
120712416.666667	-0.227889839173666	-0.26747972044842	0.716430298279962	-0.584568158328531			0.715628198142573	-0.58316483347838	-0.225858253547051	-0.262549148704475
127795500	-0.248226217023472	-0.270106890138086	0.6891017541402	-0.603279435916177			0.688584779654884	-0.605064820240967	-0.245785941037491	-0.265153780466972
134878583.333333	-0.268696694264214	-0.272707426003349	0.659557441601624	-0.625947879196252			0.662402585102	-0.624818272444659	-0.267017136370898	-0.267553461664897
141961666.666667	-0.288889644775436	-0.273952714807726	0.635264104868334	-0.643197609269788			0.63629215376975	-0.643405561747787	-0.285549958559484	-0.267615456705808
149044750	-0.308033010394932	-0.271765126553557	0.607847133881573	-0.659737642341178			0.606988285024557	-0.658868486899226	-0.307171782854627	-0.264860024439493
156127833.333333	-0.328295450769349	-0.269739924585413	0.581070041262575	-0.675771553664204			0.578938081012245	-0.675370129926092	-0.326899198456547	-0.262338696230046
163210916.666667	-0.346294685725954	-0.266196508010476	0.552280330616044	-0.690112723504917			0.551913338779787	-0.690769480553272	-0.345253425106306	-0.25839308542939
170294000	-0.365555090527638	-0.262534759166714	0.523656111183446	-0.704370261729848			0.526903454350475	-0.701561880989928	-0.362888850625922	-0.253946220571878
177377083.333333	-0.383611781939334	-0.257198825832834	0.497286814657294	-0.713535400094639			0.495848941460206	-0.711830612277551	-0.381614783474901	-0.248210024051857
184460166.666667	-0.40222130995161	-0.24967314864614	0.470643448934609	-0.725566048840562			0.468477936571985	-0.724398488933589	-0.398948174768686	-0.240519102270019
191543250	-0.418244666739176	-0.242217188553506	0.443244617133585	-0.736934850270409			0.44403680779535	-0.736022179370903	-0.416340443914069	-0.233533121409149
198626333.333333	-0.435369086317001	-0.234158665943244	0.418075955118301	-0.743640866799411			0.416292038180196	-0.742143897073719	-0.432245080409724	-0.224198550581406
205709416.666667	-0.45110730752911	-0.223309614710437	0.390320378637126	-0.751039998209218			0.390003110394289	-0.750708612259361	-0.448347009518173	-0.214558435901622
212792500	-0.465229785958426	-0.213093856419533	0.364803510624399	-0.758176658325789			0.365170395099906	-0.758923667967079	-0.462334537266953	-0.20399375012852
219875583.333333	-0.479653868341925	-0.20088073230561	0.339460237765799	-0.764421569728313			0.339511866983793	-0.764522449097616	-0.476587041061061	-0.192863240055246
226958666.666667	-0.49332892658212	-0.189943894273743	0.312804771623438	-0.767586687670079			0.311987707746135	-0.767812384652483	-0.490484105345889	-0.18068799070613
234041750	-0.506739258505778	-0.178419848049412	0.286477294508679	-0.773169595434107			0.288913079071376	-0.774072943597065	-0.502885613909394	-0.168953568101237
241124833.333333	-0.519175718251159	-0.164792482725171	0.26110540371846	-0.776580001567399			0.26055349041587	-0.77566098843949	-0.513806220569533	-0.154724842505471
248207916.666667	-0.530789302095276	-0.151713399305999	0.237932452687085	-0.780025067242171			0.23929751840584	-0.780815517824374	-0.52650343789089	-0.142903340996269
255291000	-0.542793186451588	-0.137332518767131	0.21246402385163	-0.783351487211862			0.214132787334528	-0.781414159158393	-0.536409247539868	-0.126632505783858
262374083.333333	-0.552338141076371	-0.122832186195195	0.190185068387882	-0.783775121640556			0.189713531656879	-0.782483107345064	-0.545591175102609	-0.112461457851593
269457166.666667	-0.560620265090871	-0.108956734889302	0.165507824320775	-0.784090578623303			0.165725444683059	-0.782640016851387	-0.554575837903975	-9.74858554592977E-02
276540250	-0.568977552534613	-9.34645717961494E-02	0.143466335167935	-0.78565033875953			0.142489276676995	-0.783160514489214	-0.562120054956768	-8.13238954154132E-02
283623333.333333	-0.575482040294322	-7.87817716038632E-02	0.119746170352343	-0.785684476178356			0.122348488572898	-0.786326367434935	-0.56851021806281	-6.82091495679343E-02
290706416.666667	-0.581739531432578	-6.44245394018517E-02	9.73282104690097E-02	-0.786122919388908			0.096630262277072	-0.7848253165227	-0.576065915001039	-4.99762805930585E-02
297789500	-0.587375612251362	-4.69835926405084E-02	7.44186311930777E-02	-0.784683234530306			7.54875875609718E-02	-0.783836329247012	-0.582190629566557	-3.54853298409441E-02
304872583.333333	-0.592853894151137	-3.21123187684897E-02	5.27171744083898E-02	-0.783292776323978			0.052021227078633	-0.782454125024702	-0.585459741618538	-1.71809157514151E-02
311955666.666667	-0.59595858673068	-1.64108866367137E-02	3.03061497345097E-02	-0.780804352627247			3.07426962134313E-02	-0.781117136626831	-0.58853626161952	-7.51667149956893E-04
319038750	-0.599248842887367	-5.26153221268302E-04	1.06016826022088E-02	-0.77967704750579			8.61709068550169E-03	-0.778708067338625	-0.591449447959338	1.50579267408413E-02
326121833.333333	-0.60259341477983	1.60576562568794E-02	-1.13181668380069E-02	-0.778073442007056			-1.14094938256131E-02	-0.77852186859633	-0.594972079016227	3.07577236120184E-02
333204916.666667	-0.605993194492361	3.13697796742786E-02	-3.39896235305149E-02	-0.77617173071538			-3.40335430617881E-02	-0.774509036237794	-0.594652428195111	4.67267376228826E-02
340288000	-0.606287723430804	5.08469733326091E-02	-5.23425237308048E-02	-0.773906424134524			-5.61725566538987E-02	-0.770668902115362	-0.594922073788169	6.39048592488647E-02
347371083.333333	-0.606879055352013	6.71774425445945E-02	-7.74477136678566E-02	-0.769889734502338			-7.56186818071557E-02	-0.766868598404347	-0.593398939314001	8.03142767470996E-02
354454166.666667	-0.60457353968259	8.07378910922222E-02	-9.84930781349894E-02	-0.764125081475297			-9.63587896685797E-02	-0.764950166674734	-0.594121022826962	9.58064382576778E-02
361537250	-0.603892974591268	9.74316544632333E-02	-0.117640776448214	-0.759393399829718			-0.116766518837094	-0.759833790131772	-0.593276410802924	0.11222649105738
368620333.333333	-0.602766460206607	0.113627136777664	-0.137123972559573	-0.754112443131265			-0.136788361456532	-0.756380793457909	-0.593621273874328	0.127846440770545
375703416.666667	-0.599698997228445	0.129947966731209	-0.157989841319016	-0.751063830174737			-0.157616791236061	-0.751317058783727	-0.589468055842465	0.143911041089405
382786500	-0.597292031986965	0.14564737188027	-0.179131193401092	-0.746037823704794			-0.178094857980796	-0.745664267049595	-0.585379664485318	0.159633237836639
389869583.333333	-0.594587146377355	0.162094796563964	-0.19636003428582	-0.740096673017483			-0.196802807229307	-0.740941258823659	-0.581658841475681	0.175999040493766
396952666.666667	-0.589476235078234	0.17759836255139	-0.216813013902545	-0.734474241265141			-0.217205087283645	-0.734456354658203	-0.57576195055762	0.190922523886062
404035750	-0.584315619911539	0.192173670323911	-0.23823585038273	-0.729505216061319			-0.238293753081579	-0.728772163115412	-0.569318845397347	0.207247103839022
411118833.333333	-0.578043691503601	0.20854352794776	-0.25895294883799	-0.722325230993925			-0.257166682554264	-0.721344751776597	-0.562324903343061	0.221676729670918
418201916.666667	-0.570294466364733	0.220685715756827	-0.277474028944753	-0.715926025958029			-0.277624593844389	-0.718137972505282	-0.557709811273156	0.23614856816757
425285000	-0.562873758360499	0.237095588726806	-0.298345903633262	-0.707934404747688			-0.296554075472996	-0.708156784566689	-0.54719733591178	0.249396497276006
432368083.333333	-0.554654315368543	0.249798324702308	-0.316082364038566	-0.70261526909651			-0.316676404041468	-0.701340040899134	-0.539186430235046	0.26503645047022
439451166.666667	-0.546389893946602	0.264698393476066	-0.337799869437831	-0.693995114727264			-0.336859479933437	-0.696664875920267	-0.53173886287097	0.27764863112839
446534250	-0.536394252492005	0.277779819515416	-0.357842277663219	-0.685493826833954			-0.355560678043877	-0.68587154177777	-0.520562355424928	0.290779363779335
453617333.333333	-0.525855929477679	0.29067670589267	-0.376773938489713	-0.677225002187365			-0.374435903784307	-0.679037987347409	-0.510905104908658	0.303530270175942
460700416.666667	-0.51552291056151	0.303111826754733	-0.397345086173982	-0.668573350481927			-0.396108112799544	-0.668391800708046	-0.498922181734786	0.315132844875576
467783500	-0.504159955697137	0.313369606877765	-0.41727530076916	-0.658572696737224			-0.415841047447266	-0.659829324506132	-0.487198812585416	0.327272286244216
474866583.333333	-0.493431023308188	0.325198701602286	-0.436111114119504	-0.64899424379883			-0.435629665936863	-0.65064845381688	-0.475057668307988	0.337230933740217
481949666.666667	-0.477691231101659	0.33772989444546	-0.45738867380979	-0.636531453790077			-0.45731650194271	-0.637928394577237	-0.463019552811124	0.350517444837709
489032750	-0.465533454337606	0.347448477276506	-0.473830519154651	-0.627090985894698			-0.476401113056163	-0.627909877204066	-0.449123476798698	0.357319924411974
496115833.333333	-0.453482632025255	0.358282042846058	-0.4947632420984	-0.613453984830149			-0.493919476073189	-0.615075401756358	-0.435750802739369	0.367116299987206
503198916.666667	-0.439417340318473	0.367096380683528	-0.514951775040612	-0.603898155232563			-0.515048422414174	-0.604522298835907	-0.422506072750594	0.375209709569402
510282000	-0.425946746551901	0.37476440967272	-0.533509242129607	-0.591026281275504			-0.535252363869386	-0.588275267876461	-0.406644968300764	0.383078178159132
517365083.333333	-0.410607630283777	0.382369613233063	-0.553907914296417	-0.576263796134265			-0.554425482674488	-0.577225261181695	-0.393396533059515	0.390660005202436
524448166.666667	-0.394069052669206	0.391008082416337	-0.574431989240882	-0.561350137758596			-0.575071876806742	-0.562666234315765	-0.37907772687568	0.399339337534255
531531250	-0.376657546450546	0.395924201350268	-0.593509461158161	-0.548398875174013			-0.594083775596258	-0.548319988826762	-0.361799999438218	0.405330463117289
538614333.333333	-0.36146159181875	0.400722699084063	-0.610534067804921	-0.531340616182544			-0.612174186307001	-0.533459978791886	-0.345563247507639	0.408085789944192
545697416.666667	-0.345539970683894	0.406720980488576	-0.634426582359618	-0.516099722616977			-0.629666828916054	-0.515343946563012	-0.327693474105877	0.412598589206102
552780500	-0.328379627336782	0.410197596482712	-0.651021577757877	-0.498808660979391			-0.650349595199345	-0.499186059980607	-0.312253875871978	0.416700177123069
559863583.333333	-0.311588725624966	0.412287718553181	-0.669706026425174	-0.480426158904165			-0.670881391101963	-0.481478643824746	-0.292372447608837	0.419944611757149
566946666.666667	-0.292484362818679	0.413674885751175	-0.688774351421397	-0.462776544310542			-0.690082447851173	-0.463791172746667	-0.275323175829035	0.420288224992793
574029750	-0.275709701794621	0.414023593335074	-0.707750481550225	-0.442941027216414			-0.707405142447232	-0.443866804175934	-0.258605295290942	0.419575396931147
581112833.333333	-0.257964647473927	0.413797227463663	-0.726763438589282	-0.423634646742922			-0.727337448384952	-0.423013339991155	-0.240195498420729	0.418358628750212
588195916.666667	-0.239213053397909	0.411915039213561	-0.743209840034638	-0.4018844301157			-0.743878459713237	-0.399376490742556	-0.220205705921923	0.416218132518264
595279000	-0.221007351455452	0.409076708941053	-0.761042664273385	-0.380097173508384			-0.764471864238544	-0.377636202619071	-0.204453492183412	0.413257497364923
602362083.333333	-0.202445754385301	0.404989385993836	-0.780531752722094	-0.357948608552423			-0.780332334690353	-0.3561953503103	-0.187356485423205	0.407031204450366
609445166.666667	-0.184060910417112	0.400221502960336	-0.796346393952932	-0.329271006733758			-0.794723833748757	-0.330984146576299	-0.16873890618321	0.401779698478791
616528250	-0.167789813950972	0.395498614430453	-0.811663182093101	-0.304399069771925			-0.813085156335196	-0.304320112437355	-0.152157514412127	0.3956088435235
623611333.333333	-0.14983988857393	0.386771195088786	-0.825828116435329	-0.278819123243138			-0.827287683555325	-0.279972293214689	-0.135185108909448	0.388531126403562
630694416.666667	-0.132142481166898	0.379519639529295	-0.84107129177024	-0.251163986662576			-0.840649135309715	-0.251536433901665	-0.120671553443448	0.378056001134654
637777500	-0.115823041229703	0.368797115002668	-0.853973433097006	-0.220870489496079			-0.853592861613919	-0.219581096407166	-0.103427533079858	0.369096984827515
644860583.333333	-0.101451785070486	0.358266881307332	-0.866337210831026	-0.195109503349859			-0.865945020419531	-0.191357542096337	-9.02168633267137E-02	0.358353783927976
651943666.666667	-8.65796874736234E-02	0.34666525165213	-0.874432564102976	-0.165824689693984			-0.875817597601036	-0.165001627963165	-7.62234097064553E-02	0.345709449169991
659026750	-7.15983202375468E-02	0.334394340962114	-0.887665177100886	-0.131168008814257			-0.890149308179947	-0.130397496006495	-6.20620026447895E-02	0.333782965802489
666109833.333333	-5.73386977752778E-02	0.319895824877507	-0.898008776238243	-9.97817358170897E-02			-0.89776959517444	-9.74130479927312E-02	-5.01143665871973E-02	0.319798387236372
673192916.666667	-4.46335589447778E-02	0.304584915454559	-0.904725667170751	-6.64365321427355E-02			-0.905177003263404	-6.62578476702311E-02	-3.75889309817103E-02	0.303780418801718
680276000	-0.034126636787877	0.287905202365224	-0.913239848720407	-3.48074809915994E-02			-0.911806159342176	-3.19595838117641E-02	-2.66246305975465E-02	0.288132991743937
687359083.333333	-2.30991290659989E-02	0.27154389155215	-0.917634044620629	4.99568514788075E-03			-0.916744403389354	4.25207766931211E-03	-1.66399456933543E-02	0.270955940138214
694442166.666667	-1.41660069310219E-02	0.252999880413261	-0.921293563451844	3.85346491844823E-02			-0.92023492515912	3.67619153838964E-02	-9.17751870532296E-03	0.252011670885423
701525250	-6.29428544376205E-03	0.233730661903864	-0.921806128809232	7.52563596557835E-02			-0.921620978083863	7.30574617179549E-02	-1.76940366409627E-03	0.23351835954356
708608333.333333	8.90754828300816E-04	0.213359540982308	-0.922888808665537	0.108557852332704			-0.923170765023182	0.110399556493027	3.35672874489106E-03	0.215296183838168
715691416.666667	4.92570826105197E-03	0.193478252848255	-0.9202336458207	0.146741619804911			-0.919573616905625	0.144677395472911	8.82958976812178E-03	0.193670210185111
722774500	8.75645989143276E-03	0.172050143994796	-0.916234330080804	0.182048782696239			-0.914885872659185	0.18425107313116	1.10771151951079E-02	0.173914133763837
729857583.333333	1.06499522402671E-02	0.151420937874926	-0.910046037364387	0.219516400696737			-0.912801090848428	0.218878428615635	1.01204094239815E-02	0.152957659475466
736940666.666667	1.02494059710494E-02	0.130371406114541	-0.90263223263934	0.257933111165735			-0.904393417081768	0.257888605112255	1.03740233201969E-02	0.132374394102938
744023750	9.03746186869241E-03	0.109042010297265	-0.893196226720222	0.294192102385911			-0.895108079729167	0.293122020991095	6.99035218421818E-03	0.111786625597322
751106833.333333	5.89896743564219E-03	8.83500118246729E-02	-0.882492378883189	0.331825864390669			-0.884614941134949	0.327498893474727	1.81107034744517E-03	9.16204399833548E-02
758189916.666667	1.00034598965817E-03	6.74300040947546E-02	-0.869005516078507	0.364642637818863			-0.868763336024878	0.364154223243968	-3.81509509077947E-03	7.18461952177654E-02
765273000	-5.44353698937781E-03	0.047517050953616	-0.855177470967311	0.399684633459147			-0.85268551111915	0.400131802489138	-1.10043602070597E-02	5.26732377752824E-02
772356083.333333	-1.32855472896038E-02	2.80225733381368E-02	-0.837858338491326	0.434763716938445			-0.837136289068916	0.435546028211125	-2.10916383597213E-02	3.49726990911631E-02
779439166.666667	-2.31779336869367E-02	8.8710115341097E-03	-0.818115273341101	0.469297334812704			-0.817371213745722	0.468341582383639	-3.15256251654503E-02	1.69953800983932E-02
786522250	-3.45251043397423E-02	-8.97050641967469E-03	-0.798392386974591	0.501157772460921			-0.798931935303925	0.503864523018962	-4.38828735595476E-02	3.59721293473129E-04
793605333.333333	-4.73094778583607E-02	-2.55534705625537E-02	-0.776778405934535	0.533076544582902			-0.775122642588614	0.532579518158466	-5.74200957340001E-02	-1.47565702256989E-02
800688416.666667	-6.13118759339124E-02	-0.041358678817928	-0.752133974196237	0.563352633016781			-0.749641597684998	0.561831648416849	-7.20866121416033E-02	-2.98463552444348E-02
807771500	-7.68849976138426E-02	-5.68526253204737E-02	-0.727806039756908	0.589374260255365			-0.727359696020362	0.594037664449893	-8.75233406208923E-02	-4.20342789423337E-02
814854583.333333	-9.35406554238626E-02	-6.94828172982137E-02	-0.702158418486011	0.617879869167882			-0.701939611041793	0.620311142779899	-0.104737142255079	-5.44757300843724E-02
821937666.666667	-0.110706487715844	-8.20273844212362E-02	-0.672304654300337	0.642375812384817			-0.6735967244604	0.644404493577181	-0.122356691279047	-6.44808912175473E-02
