# Hz S RI R 50
300000	-3.25611595956474E-03	6.84388942320955E-03	0.996649584743869	-4.78032161470617E-03			0.995138029665028	-7.71210740713993E-03	7.27955230918983E-04	3.44144480484031E-03
7383083.33333333	2.27896067683327E-03	2.48623041884661E-02	0.998621380638553	-4.05208642748251E-02			0.998731228651575	-4.11962678456893E-02	2.75029067572669E-03	2.43434205698542E-02
14466166.6666667	5.11580953766344E-03	4.66563994821948E-02	0.99512046860924	-8.39301039370267E-02			0.994749988419996	-8.51507779849461E-02	5.71782540143763E-03	4.60211013061798E-02
21549250	9.93133510411433E-03	6.97128656161763E-02	0.988613389833264	-0.122784144604079			0.987535807827055	-0.122565296575151	9.90294041005787E-03	0.069568304971336
28632333.3333333	1.59811187258242E-02	9.17337425434312E-02	0.980810057881223	-0.159793224725674			0.978080779865636	-0.160082266618307	1.59151514094977E-02	9.10575382790852E-02
35715416.6666667	2.36265074384974E-02	0.113577529310863	0.970679717579585	-0.197358598967881			0.970743295361864	-0.196352077231139	2.45372058664111E-02	0.112860889408517
42798500	3.36477811544099E-02	0.133867544461175	0.959880321926946	-0.233055529464579			0.956772194473314	-0.233589170410083	3.40845785863513E-02	0.133205573982407
49881583.3333333	4.43095608565074E-02	0.153630877720869	0.945674775808489	-0.269123059804226			0.945260970321143	-0.269269198759401	0.045621908776842	0.152519664815672
56964666.6666667	5.67123918421587E-02	0.171756593266986	0.931390667587003	-0.303135269793476			0.931541516276903	-0.304098172586562	5.80426311632033E-02	0.171063140796283
64047750	7.02249168416238E-02	0.18908555101601	0.914353665411328	-0.336704511118465			0.912587787493797	-0.336659444279479	7.17020757144704E-02	0.187524184743112
71130833.3333333	8.47313527387374E-02	0.204674783199588	0.896265597726133	-0.369536627541073			0.896506584557775	-0.369619036944795	8.63968214312836E-02	0.203281529940792
78213916.6666667	0.100727655777795	0.219482366670109	0.876975634643581	-0.401671371679753			0.877327012269929	-0.399727722470898	0.102028389540123	0.218164196423827
85297000	0.117584749006275	0.233313579838998	0.856762592533933	-0.431855637600709			0.85665501462703	-0.430312601542746	0.118795175675593	0.231880991507199
92380083.3333333	0.134358184178697	0.246347034347489	0.835234100455853	-0.456983656707385			0.836342742456101	-0.456761326295872	0.136254807896682	0.244677704550613
99463166.6666667	0.152348003097951	0.256630500982691	0.813782527820571	-0.484476102618222			0.813961178030998	-0.484418367153629	0.154226936615879	0.255255458054293
106546250	0.171220973079935	0.266360543583844	0.791363415261514	-0.510474034491174			0.789739342276479	-0.508509069521695	0.172289967771463	0.263831374688727
113629333.333333	0.189847639030315	0.274840394385017	0.767300141509749	-0.535140668994318			0.767167609572311	-0.532883427254221	0.192482660032555	0.271319227848349
120712416.666667	0.209303725305289	0.281060270846071	0.741988196018783	-0.555476616760371			0.744002640344383	-0.555794834780111	0.211426925761372	0.27849434914516
127795500	0.228399725380126	0.287289607661976	0.719706484485691	-0.577084174394439			0.71858839855197	-0.575957326497128	0.230794346857307	0.283819110018045
134878583.333333	0.24721290153367	0.291082666452935	0.691486333376154	-0.59590541779146			0.692281632761938	-0.597749849655474	0.250193714362911	0.287734200834228
141961666.666667	0.267517789988045	0.294257647606334	0.667369748717375	-0.614568800457524			0.668907427788276	-0.614883174109774	0.270546119458928	0.288913221036978
149044750	0.287229515877561	0.295302484051398	0.643468481885265	-0.632454665023224			0.642453346388176	-0.629743291392235	0.288807842588871	0.291400958007476
156127833.333333	0.305759064705402	0.295711772685257	0.617715302347452	-0.646775923772777			0.61804794769507	-0.646700385342252	0.307532104313403	0.291343388924274
163210916.666667	0.324465434273584	0.295399643275731	0.591109666580786	-0.662174183950146			0.591620895117478	-0.661035910295295	0.327285100146744	0.290265420798461
170294000	0.343350203355891	0.293394298695157	0.565070336331921	-0.673956928888457			0.566791088042706	-0.673914188692793	0.345422855947866	0.289032089113206
177377083.333333	0.361744053931476	0.29025354481379	0.541898164321575	-0.685696543033023			0.541061466694473	-0.685448447512334	0.363959333748199	0.285113967012474
184460166.666667	0.378519766559742	0.286175474917391	0.511251360797319	-0.69777874360875			0.51756052376503	-0.695003364648933	0.382251903643253	0.280350944080767
191543250	0.39703260816245	0.281368858763421	0.48919447945983	-0.709578713572598			0.4910955922694	-0.707149142072433	0.398741352135023	0.274559195349411
198626333.333333	0.414324861594685	0.275821571198837	0.46606777065098	-0.71755913206538			0.466268569138048	-0.716424263645263	0.415849235152912	0.268498839585999
205709416.666667	0.430044389949228	0.268797399935531	0.440367857209607	-0.723793978573241			0.44191038913467	-0.724009326995901	0.431593300782407	0.261833775787893
212792500	0.44531832795999	0.260852323276801	0.416701192642676	-0.731690817601988			0.417525985422423	-0.732699214440977	0.448424401536982	0.252991767321077
219875583.333333	0.461107445125665	0.252047835347985	0.392155302639079	-0.739461188629209			0.393332641426288	-0.737556351933064	0.46370868237986	0.243411907731386
226958666.666667	0.475680855964463	0.242399476889284	0.366563193680662	-0.741691973838077			0.37043167722981	-0.743326774677043	0.47761960636155	0.236107526630857
234041750	0.489398389713575	0.233318372990375	0.345884715440571	-0.748208028495975			0.345753786409587	-0.749351081229862	0.491301569092595	0.225023690528002
241124833.333333	0.503076578157039	0.223319032480038	0.322528348232959	-0.752901372091546			0.323691949311748	-0.753319217986942	0.504159053022313	0.215086322112187
248207916.666667	0.515561267521643	0.21226836109131	0.298882399703963	-0.758042669190227			0.299984901187274	-0.758325641120201	0.517619781184504	0.201442287373825
255291000	0.528053830564283	0.201371870719293	0.276643682423552	-0.760466198007529			0.277669284794289	-0.759239830998478	0.529466648088539	0.191286505599981
262374083.333333	0.539321337532435	0.189938944366092	0.256169829961307	-0.761946613481011			0.255979272274469	-0.762637567242149	0.541567501016453	0.180633414428206
269457166.666667	0.549079781150702	0.177585714342417	0.233068035384259	-0.762776631219338			0.234132130319681	-0.76298595126098	0.551331043514343	0.167032090585146
276540250	0.558666472673325	0.165361985486606	0.212333866237211	-0.76539402606253			0.212076083141177	-0.764719189862622	0.559130372629942	0.154418736033164
283623333.333333	0.567964506196434	0.152081008394347	0.190100502241632	-0.766998745028149			0.191866794018535	-0.767266676956066	0.569670271589621	0.1397574977316
290706416.666667	0.577112552343792	0.13778669748594	0.17120092694278	-0.767840442550817			0.17082772659764	-0.765815590549939	0.577780891193453	0.126247526713982
297789500	0.58466237273709	0.124725053281693	0.149971222112134	-0.767624868019143			0.150192538538856	-0.767154172371231	0.585969239488771	0.114641030035482
304872583.333333	0.592185435869669	0.110452084148223	0.129796167220741	-0.769268802411645			0.130037477435742	-0.766582244543399	0.591195765249855	9.97203033149051E-02
311955666.666667	0.596383281591744	9.82011278963593E-02	0.11176051944379	-0.76747878079335			0.110973528525295	-0.767200819222378	0.597483090172574	8.53353175527623E-02
319038750	0.60326077492581	8.24647972481265E-02	0.090513863534705	-0.766494442022974			9.12975885696448E-02	-0.76712390038426	0.603771678160837	7.18284790606895E-02
326121833.333333	0.6090137333652	6.83425033533172E-02	7.09548805049543E-02	-0.766519708965954			0.069243940139543	-0.768366471165395	0.607673016069934	0.05523519058768
333204916.666667	0.610872665974417	5.36001940949512E-02	5.20582068204901E-02	-0.764777391661703			5.12085531451032E-02	-0.766570767351909	0.613559352384495	4.06993736258847E-02
340288000	0.616436802974594	0.038089173502905	3.35474554254628E-02	-0.765032650433466			3.33320538433514E-02	-0.764192552912107	0.616635332735495	2.52712580327875E-02
347371083.333333	0.61855861402345	2.36412120228163E-02	1.27522703529196E-02	-0.76165878644171			1.25242801529145E-02	-0.760794477374197	0.61736756482576	9.44292918946459E-03
354454166.666667	0.62112439546502	9.94286759986502E-03	-5.17788473599953E-03	-0.761074236951611			-4.23371974571768E-03	-0.759858859718058	0.620248330617772	-4.80650657476972E-03
361537250	0.622168014679468	-6.17320754312328E-03	-2.36855155211197E-02	-0.758029675172978			-2.45664865369519E-02	-0.759114443083572	0.623577063671368	-2.04685341209109E-02
368620333.333333	0.623908013068176	-1.94942051813625E-02	-4.16873055741413E-02	-0.755657446345712			-4.39744949068342E-02	-0.755873603400166	0.623582144668893	-3.66755998184789E-02
375703416.666667	0.624788220112353	-3.58602438568664E-02	-6.05951530137221E-02	-0.754397795770287			-6.04298122366135E-02	-0.75307737331733	0.621316623346114	-5.03349912222513E-02
382786500	0.62407169033558	-5.06954561484489E-02	-7.74734447508556E-02	-0.753085524399553			-8.01077435247964E-02	-0.752084717005633	0.622400089451599	-6.59385550761603E-02
389869583.333333	0.623806566089803	-0.06404116223454	-9.51216581805548E-02	-0.747263973379154			-9.33708288202477E-02	-0.748513761073193	0.62200086425017	-7.99992866623637E-02
396952666.666667	0.622323765424064	-7.95328556539128E-02	-0.113015544368331	-0.744037629104743			-0.115555042152381	-0.744351120710271	0.620078035395987	-9.57554929471621E-02
404035750	0.619674247496778	-9.41359031760595E-02	-0.131715281402878	-0.740700487833999			-0.132794115101826	-0.740599983164059	0.616288661571129	-0.109911556800217
411118833.333333	0.617070028907181	-0.107842874344542	-0.149431871314546	-0.73749339839278			-0.149166181155421	-0.735986260378627	0.614686646602119	-0.124742904682682
418201916.666667	0.615576454082005	-0.122671204346243	-0.166301055577925	-0.734127638464289			-0.169568382538163	-0.733188294155272	0.609439012258266	-0.140566414762741
425285000	0.611482167211499	-0.1363454179711	-0.184349995588769	-0.729777105771942			-0.186463262811206	-0.728911677956675	0.606125132814502	-0.154393204983538
432368083.333333	0.606299107962001	-0.151486150362893	-0.20285821465842	-0.725995467011721			-0.20333284738354	-0.724289489374977	0.602229500438771	-0.168225140576674
439451166.666667	0.600778407259688	-0.163525864109407	-0.220736413281719	-0.721232067591842			-0.223232045046093	-0.719471897376129	0.593912438151147	-0.184227125261553
446534250	0.593696447291324	-0.17716404859403	-0.237583246466409	-0.715483527115331			-0.236720338641007	-0.714776536001891	0.590355179276769	-0.195650360525301
453617333.333333	0.588747418544473	-0.190041227797254	-0.257427630925874	-0.70963338758404			-0.256233749975457	-0.71119739320084	0.584643348250717	-0.210606080475068
460700416.666667	0.580118330223919	-0.2038110516582	-0.274326296245507	-0.705528437814905			-0.273376510255068	-0.703668827440286	0.574667039737937	-0.220666039546782
467783500	0.574071827720405	-0.215894003268044	-0.291021841824364	-0.70072048035305			-0.291999635056348	-0.698936198436214	0.568049776669898	-0.23543043855486
474866583.333333	0.566241261758812	-0.228511088963537	-0.310302819879231	-0.694653216279228			-0.309402310762918	-0.694391804767714	0.558635098622409	-0.247803972794059
481949666.666667	0.558568261308066	-0.238688768913658	-0.326070688321639	-0.690029702289331			-0.326336717237407	-0.686800564484963	0.548252519278691	-0.259766533820106
489032750	0.549892223804736	-0.252790468926805	-0.343792015540704	-0.680611295482724			-0.345703194313024	-0.682007600376718	0.539736843194529	-0.272736413938001
496115833.333333	0.538894004904294	-0.264169530128121	-0.365455987700489	-0.674386341706287			-0.36387264636455	-0.674553617754776	0.529843703324073	-0.285854396892615
503198916.666667	0.531017017480757	-0.274752740502315	-0.379929426060639	-0.66849688633448			-0.381973723152719	-0.666226832375125	0.519201506475177	-0.296378724151533
510282000	0.517876077210861	-0.286716581774825	-0.399869155979746	-0.661890292459512			-0.400367083902076	-0.659131353818904	0.508491298304447	-0.305592041831062
517365083.333333	0.508919754094013	-0.297469889833076	-0.41895677735591	-0.653321648345165			-0.417200112289225	-0.652024023850621	0.496854499582325	-0.316003117340372
524448166.666667	0.497448856355945	-0.305618237332245	-0.436337892266891	-0.644559196506995			-0.43590642139772	-0.643340276746848	0.484036811048474	-0.325079781693637
531531250	0.48466783196262	-0.315170404201464	-0.454490179906298	-0.635661156367668			-0.454722649670733	-0.634569809957537	0.471348948487512	-0.33552967635583
538614333.333333	0.472909111627391	-0.323307553110445	-0.473589003383208	-0.626982963507229			-0.471589058236498	-0.622978789539463	0.456955827627725	-0.344936534658488
545697416.666667	0.458078241531344	-0.331723990438388	-0.492937431412035	-0.615745024202443			-0.492428831871966	-0.616992238250256	0.44400447660826	-0.351742831377238
552780500	0.446110463296484	-0.338295488466238	-0.508311069924656	-0.606719639650254			-0.51199052736688	-0.605787137418412	0.429839449121942	-0.359403406140333
559863583.333333	0.431253912905786	-0.34661342428978	-0.530915580201687	-0.593048872514369			-0.529871803766364	-0.592834823586596	0.415322679888318	-0.366628722012735
566946666.666667	0.41671416953264	-0.350960565859687	-0.547286325493794	-0.582567790070607			-0.548688152104709	-0.581688663560339	0.398774803114579	-0.372282822792362
574029750	0.40153155620179	-0.35869593213682	-0.568264739444448	-0.571401364838034			-0.567351605256261	-0.570563570469111	0.385650822091563	-0.377299521732393
581112833.333333	0.386870355217547	-0.36189798044439	-0.585023615394405	-0.559411453579715			-0.585370138800102	-0.557968172465766	0.368195597885835	-0.382123797768393
588195916.666667	0.371691716574287	-0.366277674796158	-0.603439505181849	-0.546237536626568			-0.602274130507439	-0.5440661624374	0.351573389139803	-0.386054056577467
595279000	0.354428098067379	-0.370564376593711	-0.623828004867231	-0.53059582618591			-0.625748970923886	-0.529040894260742	0.334253197309729	-0.388651772844579
602362083.333333	0.338532702826453	-0.372740557688654	-0.643141083322556	-0.517199173325202			-0.641591446816475	-0.51628711837169	0.317215965624503	-0.390762656150072
609445166.666667	0.323318600621617	-0.372624794453089	-0.661481123900623	-0.499809178250071			-0.661384148526225	-0.499070905562526	0.300962898375698	-0.392322759348765
616528250	0.306413726664146	-0.375291519625369	-0.680986308708668	-0.483559405040805			-0.678509269692604	-0.481660545743494	0.283556595979929	-0.392225084760367
623611333.333333	0.290440485331949	-0.373648586030172	-0.69855599823933	-0.465144857881773			-0.697758442415413	-0.464798984323825	0.266619659916675	-0.392641964972938
630694416.666667	0.273637250742335	-0.374469386291198	-0.716766048434841	-0.447453497686415			-0.71606980580864	-0.44763909136212	0.248894786163101	-0.391249039054286
637777500	0.256956251956134	-0.370011705709671	-0.734108081174237	-0.428429682916103			-0.733227798373433	-0.426735622912732	0.232086633317154	-0.387821681821894
644860583.333333	0.239804587639298	-0.370090968586902	-0.752627448647986	-0.407513142227782			-0.751085813063941	-0.405396606975348	0.214238822259964	-0.384318732827121
651943666.666667	0.22392915876935	-0.365325249285049	-0.767124421626868	-0.387727963933088			-0.7679086533878	-0.386592011015244	0.19753512534904	-0.38047251181277
659026750	0.206676414581896	-0.359453879959766	-0.784965812366153	-0.3653014621104			-0.784390798352987	-0.362924488461472	0.180677677912214	-0.374024167806709
666109833.333333	0.190390931231962	-0.353607904409108	-0.80149297672436	-0.342596716659343			-0.801145065562951	-0.340119297792275	0.162815487451316	-0.366786917190218
673192916.666667	0.17378894409683	-0.347469941844922	-0.817623204352451	-0.317276988749953			-0.816360726381536	-0.317370101745207	0.147054409491178	-0.360533047715091
680276000	0.158684746861284	-0.339946656479894	-0.831390493433293	-0.292933018072317			-0.831453951854548	-0.293128215232371	0.131430206381523	-0.350981163565382
687359083.333333	0.143930677690728	-0.330109896569213	-0.846689414250516	-0.265345470395592			-0.845022910569976	-0.265702983124409	0.1141943129106	-0.341839065068314
694442166.666667	0.129226801703106	-0.320638185584787	-0.860549276989423	-0.240403219894559			-0.858709319100168	-0.240206288845925	0.100545946350873	-0.33010199008263
701525250	0.11509942946759	-0.309799501820987	-0.87108969762437	-0.212948325032066			-0.871286886361059	-0.213085132123851	8.57931148908112E-02	-0.319352287403581
708608333.333333	0.102315992646322	-0.298771714106803	-0.883777167575332	-0.185868653265812			-0.884796779762283	-0.18359091709712	7.13685917260194E-02	-0.305816558827366
715691416.666667	8.88438787185154E-02	-0.285544445854667	-0.894204917235248	-0.155618836369414			-0.893564681530729	-0.155694214767539	5.96932707028494E-02	-0.292764402953912
722774500	7.79445524459354E-02	-0.271805552798985	-0.902590052438822	-0.125805728998224			-0.900335317658449	-0.124535888429007	0.04834775766946	-0.27681207516049
729857583.333333	6.65504960751357E-02	-0.256783988875307	-0.910842751441768	-9.35472721444275E-02			-0.911061292547435	-9.52061612111934E-02	3.57731026785074E-02	-0.262333924151683
736940666.666667	5.64847714899986E-02	-0.242786634682426	-0.917435262415747	-6.12377794674605E-02			-0.917750475358007	-6.17784726508648E-02	2.56431347569321E-02	-0.246030776262282
744023750	4.77729456660768E-02	-0.226566590462696	-0.923568075853202	-2.99549263215656E-02			-0.922707605027325	-3.17317724458774E-02	0.016953283715837	-0.229082705009539
751106833.333333	3.97508198177273E-02	-0.209581023876687	-0.927296466066359	2.8922839066135E-03			-0.927832457980108	2.22988958680177E-03	7.93175768134406E-03	-0.21120675050914
758189916.666667	0.032699289163175	-0.192936292713699	-0.929221036278488	3.72502076514212E-02			-0.93049930543536	3.52311019839962E-02	2.54410631852869E-03	-0.192934560582311
765273000	2.72954815444555E-02	-0.1747952127444	-0.932458276276965	6.78398065653938E-02			-0.928804878995812	7.04428008966327E-02	-2.74731506525143E-03	-0.173467402873055
772356083.333333	2.32935250165127E-02	-0.156355144558298	-0.931118486358262	0.103838558828392			-0.928992575580125	0.103391526749487	-7.33024120567893E-03	-0.154502526313395
779439166.666667	2.08741662153789E-02	-0.13841088086928	-0.927797330470962	0.139585893843204			-0.926977315683879	0.13750101925521	-9.21429689932592E-03	-0.134790925469953
786522250	1.97545067001199E-02	-0.120612439084628	-0.924898539065969	0.172280612156874			-0.925853575271664	0.173354130726863	-1.04900038928026E-02	-0.116391113356768
793605333.333333	1.89859050643368E-02	-0.102195306506072	-0.919983432858678	0.206469455638186			-0.919747807581446	0.206362132616497	-1.04064203514269E-02	-9.65156163725095E-02
800688416.666667	2.03305160257319E-02	-8.38644969015053E-02	-0.914166742027775	0.240963635141958			-0.911267424826065	0.23876033942902	-8.26862672182941E-03	-7.74407261978936E-02
807771500	2.30583456576628E-02	-6.66729185327073E-02	-0.902455451253685	0.272533266119048			-0.906217060054093	0.275661273721779	-5.4624261860678E-03	-5.77292784187965E-02
814854583.333333	2.61643116601215E-02	-4.84148746927086E-02	-0.895359515319899	0.308013749726899			-0.898405152948203	0.31010703162602	-7.96626408263747E-04	-3.97016089302985E-02
821937666.666667	3.15274211732509E-02	-3.09342685722353E-02	-0.881561797855648	0.338253681689598			-0.882801833798535	0.340318155717598	4.86939082470356E-03	-2.12606923286591E-02
829020750	3.75355506163611E-02	-1.42390978084501E-02	-0.868774116400588	0.371709376665984			-0.869795249355425	0.372367682121966	1.15414967120838E-02	-3.24266155109776E-03
