# Hz S RI R 50
300000	-4.58615748975464E-03	5.55213144497629E-03	0.999310694816154	-5.3303782826438E-03			0.993760614330717	-6.70699375966715E-03	-6.04073941868704E-04	2.19438120598469E-03
7383083.33333333	-3.01762269467493E-04	1.04184368886454E-03	1.00170748244198	-1.44517606110209E-02			1.0013196614457	-1.43561702538558E-02	1.40421293000378E-04	5.86176226509376E-04
14466166.6666667	-5.51954287309283E-04	7.71018910307998E-04	0.999444311358201	-3.08502130601058E-02			0.999957090850171	-3.16636716409704E-02	2.45230399713973E-05	3.03901912916274E-04
21549250	-7.21947490412507E-04	2.12175915299639E-03	0.999299872060991	-4.46199523123555E-02			0.99894236277549	-4.38667826053986E-02	-7.28286755123818E-04	1.82911804991018E-03
28632333.3333333	-1.07256723019479E-03	3.04580065007576E-03	0.999021862075857	-5.79886570092054E-02			0.997546315399238	-5.79570195117763E-02	-1.10942569956273E-03	2.14829190893686E-03
35715416.6666667	-1.75190287035691E-03	4.38506876971694E-03	0.995990501581947	-6.94917869846235E-02			0.996420864581415	-6.91859145386365E-02	-5.72712579878691E-04	3.87242604936756E-03
42798500	-1.10101233922995E-03	5.15991696597176E-03	0.996826357617632	-8.40490317443751E-02			0.993543364466554	-8.36084817452636E-02	-8.41924827913081E-04	4.47025012889983E-03
49881583.3333333	-1.8769392116649E-03	5.85720157271912E-03	0.993642630238913	-0.096972614704494			0.994265650095227	-9.75436026696581E-02	-2.2224328675092E-04	5.16424570683537E-03
56964666.6666667	-1.31639656113253E-03	6.91334190902674E-03	0.992895352049052	-0.110221005050572			0.991748180047151	-0.111066559873979	-1.6245799758238E-04	6.00385017763393E-03
64047750	-1.60040292162086E-03	7.52143015112706E-03	0.99101777303745	-0.124185965180923			0.990660833080213	-0.124484103290218	-2.85273598683923E-04	6.65233783445903E-03
71130833.3333333	-1.16893378004189E-03	7.94926723296322E-03	0.990421440039514	-0.138215518235112			0.989074020745744	-0.138033752428888	2.57343885824262E-04	7.00448911224646E-03
78213916.6666667	-1.0802133931052E-03	8.93650829953487E-03	0.989013042811679	-0.151962553916128			0.986929777910935	-0.151287241352328	6.12429971306993E-04	8.10185914238563E-03
85297000	-1.11081976181533E-03	9.86419748381991E-03	0.984699369568329	-0.165464174144941			0.984300529210711	-0.161423023532358	1.89203951299689E-04	8.88931409830124E-03
92380083.3333333	-1.28881208872899E-03	1.10629918963562E-02	0.982242848338725	-0.177518532116858			0.980123221842312	-0.176021066402681	2.22998265336976E-04	1.01567093453255E-02
99463166.6666667	-5.26757329421836E-04	1.19556979867879E-02	0.980744742228468	-0.191213622591982			0.979029218810788	-0.191665427229596	4.84498009739329E-04	1.01342404543663E-02
106546250	-7.44126243762756E-04	1.23295207711307E-02	0.977301415714632	-0.204773903059448			0.975978510442706	-0.204023485526052	5.60063199351506E-04	1.14887464353749E-02
113629333.333333	-7.58345010892759E-04	1.30277599811864E-02	0.973468198089716	-0.216987143240099			0.973391458087258	-0.218080882517745	2.02636747559425E-03	1.23652484422102E-02
120712416.666667	-3.75116049502063E-05	1.43229375443546E-02	0.969752948841383	-0.229803781979482			0.971188640711016	-0.230171091405781	1.95558445151632E-03	1.32350959721425E-02
127795500	-2.73725694974521E-04	1.51055612277037E-02	0.964472105185408	-0.242616409932939			0.966881440675107	-0.241841655238307	1.70857532370744E-03	1.43211249681415E-02
134878583.333333	4.73022891338473E-05	1.57521704873702E-02	0.962667371749062	-0.257117373368986			0.963973380773697	-0.255246648207399	1.57612695644079E-03	1.42813993964737E-02
141961666.666667	7.05714761164148E-04	1.67119274034112E-02	0.960653895365066	-0.267892803957965			0.961433710948322	-0.268280623672185	2.92972364153525E-03	1.59879526118141E-02
149044750	1.09975419209969E-03	1.79038971194609E-02	0.957121514345497	-0.280432035537777			0.953665795460988	-0.278297273938945	2.48047132850264E-03	1.67213799892623E-02
156127833.333333	1.81885433116069E-03	1.93373887043559E-02	0.952342151353982	-0.294049019128916			0.952155560448192	-0.293245284282735	3.21821291293435E-03	1.72869480038631E-02
163210916.666667	1.93377223220401E-03	1.95409544036939E-02	0.947447685084377	-0.306805933837351			0.946893328653652	-0.306032108958445	3.01992565389793E-03	1.80989430421387E-02
170294000	1.91162063579082E-03	2.08068646481039E-02	0.942704289018424	-0.319295917166276			0.943373600555492	-0.317321072682974	2.91016199777433E-03	1.91353036650931E-02
177377083.333333	3.16905810349652E-03	2.19287772998882E-02	0.939091663130526	-0.330783828819855			0.937900366668877	-0.330690634771614	3.79731313856009E-03	1.96454611766996E-02
184460166.666667	2.43178752933761E-03	2.12627970587861E-02	0.932265783699824	-0.344262680907995			0.934160562026926	-0.342466453043662	4.44262063518864E-03	2.12297758235701E-02
191543250	2.78543846980338E-03	0.022917587006511	0.928490855670464	-0.357952462956949			0.929070925525666	-0.353874347075699	5.21219791482293E-03	2.09695713808903E-02
198626333.333333	3.47164154704872E-03	2.41114809867407E-02	0.925676044387265	-0.370149292546431			0.92352195165722	-0.367271043609435	6.28507147783745E-03	2.23334264655973E-02
205709416.666667	3.67861090101154E-03	2.50912528780312E-02	0.918453849534203	-0.381078124034949			0.918884295916336	-0.379708024425636	6.25728701381768E-03	2.31927698340764E-02
212792500	4.77932564716294E-03	0.026138018518664	0.913972733443368	-0.393009628374223			0.914168321458472	-0.392012826414948	6.99642400497613E-03	2.38828588134453E-02
219875583.333333	5.99858438406186E-03	2.68488106647933E-02	0.90983487841961	-0.404739186590762			0.908702355433178	-0.403665116934251	7.59143798454958E-03	2.49842838546716E-02
226958666.666667	6.73626329774797E-03	2.82513420831185E-02	0.902589766647242	-0.416669575806716			0.901749044749709	-0.41495852810788	8.21685630120066E-03	2.56949155678625E-02
234041750	7.35071965058291E-03	2.99861557173259E-02	0.89719663207875	-0.428836613435078			0.897311634942681	-0.427162435049916	9.19012492666667E-03	2.60569678591532E-02
241124833.333333	7.71268433814106E-03	2.90446820272955E-02	0.890165270046574	-0.440639932201533			0.890794377021306	-0.439957686578722	9.8002714982184E-03	2.57120847666244E-02
248207916.666667	8.32647862431489E-03	2.95055661702017E-02	0.885987619708099	-0.453130548368025			0.88642215291681	-0.451471341383643	1.06458128571264E-02	2.70593411447305E-02
255291000	9.17960929164156E-03	3.10189712311674E-02	0.87999722947071	-0.464273171425142			0.87960280186596	-0.46215403245081	1.08263048759794E-02	2.84780144657783E-02
262374083.333333	9.6867391813929E-03	3.17985695116379E-02	0.873071028412363	-0.473394741332566			0.872685514695447	-0.474077180498338	1.18963223015157E-02	2.83185847125761E-02
269457166.666667	1.04324646558489E-02	3.21801100574286E-02	0.864911497708728	-0.486687782028693			0.864581515478295	-0.484007426434671	1.27118437974216E-02	2.97910284003119E-02
276540250	1.01840039261304E-02	3.24683465989239E-02	0.859237013926852	-0.496435970285264			0.857120143185882	-0.495131883018645	1.26293764371677E-02	2.99619798578181E-02
283623333.333333	1.18163496768438E-02	3.35210331313265E-02	0.851514232712188	-0.507686655120408			0.853803643099035	-0.506933497434003	1.41276412715257E-02	3.09485480573277E-02
290706416.666667	1.33785174248114E-02	3.49071549143947E-02	0.846840567566008	-0.518610827609367			0.846391250662208	-0.518354382104745	1.53014426451465E-02	3.23659682368223E-02
297789500	1.35426943271647E-02	3.55507100740348E-02	0.837461539724616	-0.53024786606011			0.837535437902064	-0.53103422773344	1.55892573549482E-02	3.25090335927656E-02
304872583.333333	1.48642754954692E-02	3.54093087808014E-02	0.831863795027436	-0.539127997519758			0.830489577741961	-0.540565402950449	1.57010278651642E-02	3.20739104189643E-02
311955666.666667	1.64711397455029E-02	3.65776044463232E-02	0.824642103693533	-0.548760747113999			0.824100705152432	-0.550526944307405	1.67043051774382E-02	3.31349318487865E-02
319038750	1.59644307319884E-02	3.67189110549282E-02	0.816862324181773	-0.561059560677473			0.816909769297564	-0.561476594612532	1.81518395077241E-02	3.39184151092276E-02
326121833.333333	1.67330165837903E-02	3.73191617063673E-02	0.810347855110079	-0.572620268433253			0.809122983840418	-0.572725288686588	1.82219258715919E-02	3.33352069364828E-02
333204916.666667	1.85477509344165E-02	3.68721773737438E-02	0.802987416425565	-0.586417368860796			0.801901168705944	-0.583679597452188	1.92422819182901E-02	3.46877291965706E-02
340288000	1.85586544989104E-02	3.75051837838885E-02	0.794331315901248	-0.594073745127513			0.793783378816094	-0.593060814846348	2.03385416221444E-02	3.50360104728267E-02
347371083.333333	1.96710460775495E-02	3.84970550647022E-02	0.785331789079411	-0.605616937899602			0.784345030835562	-0.602848460834212	2.02187715620375E-02	3.51151664533993E-02
354454166.666667	2.16039571980866E-02	3.82569877051154E-02	0.780423590348079	-0.615107795885239			0.77834006172829	-0.612690896250056	2.19510791452878E-02	3.59987141501823E-02
361537250	2.18086375416389E-02	3.90798233501976E-02	0.769502854425863	-0.62521094967297			0.767376656935393	-0.622936375824732	2.30678615488466E-02	3.50001159969148E-02
368620333.333333	2.23031370387197E-02	0.03972788454706	0.761141259420307	-0.633509105107617			0.762138830824717	-0.634821698798507	2.36235634510338E-02	3.60289819728084E-02
375703416.666667	2.37192362106539E-02	3.94573783367394E-02	0.752815765680591	-0.645135587504483			0.752252810429739	-0.644167360325533	2.44335741935162E-02	3.56689925046591E-02
382786500	2.47852355080157E-02	3.95988836102671E-02	0.745092560020346	-0.656143533952467			0.743802611134922	-0.655720988051763	0.026586410018398	3.57034019479416E-02
389869583.333333	2.46428292534405E-02	4.05792574145876E-02	0.736004690901812	-0.66411191287368			0.737200047367448	-0.662372122085703	2.78501689957225E-02	3.73472794197762E-02
396952666.666667	2.68669742978698E-02	4.07971121471132E-02	0.725406291266752	-0.67413683655306			0.725320163046028	-0.673564538241195	2.76085137553738E-02	3.61737435990792E-02
404035750	2.72590061898492E-02	4.08911093921324E-02	0.718170732371185	-0.684854896623943			0.716468693716208	-0.681316817926315	2.88662007912654E-02	3.67390564862351E-02
411118833.333333	2.82608275469667E-02	4.07881452196607E-02	0.707409990526158	-0.693487973132424			0.707612148887078	-0.690359852043944	2.88196077124775E-02	3.74590341447508E-02
418201916.666667	3.01279268413819E-02	4.13214120240091E-02	0.699201656011639	-0.699676632640614			0.696722495780959	-0.702260681452862	2.96743783090757E-02	3.66901991316819E-02
425285000	3.09087447686016E-02	4.12251456686101E-02	0.689383283728372	-0.710079035717178			0.686377541316788	-0.70927040367206	3.12609152155278E-02	3.65373719436014E-02
432368083.333333	3.19578128535017E-02	4.12935764703031E-02	0.679803070342259	-0.719194983930194			0.676999965713316	-0.718260780951747	3.24423251226907E-02	3.77794128870034E-02
439451166.666667	3.28988103200187E-02	4.13630397961268E-02	0.66953700295841	-0.727790829028803			0.6680347809658	-0.729079399999226	3.34436465314263E-02	3.70998522606699E-02
446534250	3.43493162187272E-02	4.20283081804124E-02	0.658670961463198	-0.737519706375441			0.661266836256134	-0.734473537686837	3.43690641576623E-02	3.83903195261666E-02
453617333.333333	3.46443311001044E-02	4.13580183761727E-02	0.649347491361079	-0.745268411473193			0.650145355622326	-0.745751235941198	3.56998235831296E-02	3.81404162661341E-02
460700416.666667	3.60787186214349E-02	0.041293928164916	0.640491096612658	-0.753055405446662			0.640125505081393	-0.753702242189325	3.66892094852228E-02	3.78856377576987E-02
467783500	3.74588332237238E-02	4.09235407339045E-02	0.629586347734991	-0.761791133601001			0.629310368279036	-0.761554393225767	3.61381098257801E-02	3.82280309509532E-02
474866583.333333	0.037990490413202	4.02693770810237E-02	0.618755684405709	-0.769112323381823			0.621033800145749	-0.768992064079357	3.79584208414814E-02	3.78261395792924E-02
481949666.666667	3.90600115038086E-02	4.07947174792103E-02	0.608804540472041	-0.776573458015305			0.608784312134303	-0.77682557062974	3.87869142848086E-02	3.83484191335114E-02
489032750	4.02918100981262E-02	4.11027418833151E-02	0.59853638795286	-0.783881388177333			0.598019489424114	-0.785866846717674	3.98557585082482E-02	3.74814063536822E-02
496115833.333333	3.96357261955987E-02	3.94101682585866E-02	0.588037540239209	-0.791371297517803			0.588691271468949	-0.792557787068833	0.041761296122669	3.71982106424986E-02
503198916.666667	4.21438027676456E-02	3.93700444444286E-02	0.578492577507672	-0.80024789439994			0.577508599041164	-0.799305698219838	3.98223868573771E-02	3.75720547642958E-02
510282000	4.27895860118957E-02	3.73105998232817E-02	0.563502470580855	-0.807777096726388			0.566044274786084	-0.80804431398462	0.04229612746561	3.69041557226327E-02
517365083.333333	4.47365684507874E-02	3.95900721147293E-02	0.556626285731561	-0.815352668832564			0.554785917514358	-0.815584255027566	4.38824314427376E-02	3.71267484636941E-02
524448166.666667	4.48992685343477E-02	3.95653960046415E-02	0.544410829844726	-0.821710079505021			0.542926971335749	-0.820196355402238	4.46825259093725E-02	3.60552316681752E-02
531531250	4.50365321582387E-02	0.040111018690226	0.532045161823686	-0.82995946268788			0.533812821718733	-0.829187206849276	4.60468559528997E-02	3.57597254609565E-02
538614333.333333	0.046781291609968	3.84304001958518E-02	0.522678698259046	-0.836085460582847			0.522480467035815	-0.835137624422721	4.68949757616642E-02	0.035351884074146
545697416.666667	4.64279465101195E-02	3.81797114416534E-02	0.510144959805868	-0.845182173002976			0.512051683240367	-0.84224800175446	4.72663892255311E-02	3.48136993914633E-02
552780500	4.83441181260593E-02	3.88018095212518E-02	0.500507147362469	-0.848226899232187			0.500164387569568	-0.84989068823418	4.85703061505279E-02	3.35534917434405E-02
559863583.333333	4.96622781638831E-02	3.80463024158776E-02	0.486660505162009	-0.855208128165282			0.487507088104411	-0.856011385995325	0.048522154601368	3.37037668203357E-02
566946666.666667	4.98259411490025E-02	3.76993608526367E-02	0.476724063534748	-0.86243879292463			0.476969817619803	-0.864147501362902	4.89350001107923E-02	3.31062876371535E-02
574029750	5.06758730090892E-02	3.56917533777352E-02	0.466892445954716	-0.8692039215238			0.466858350140958	-0.868480377871471	0.050428385864642	3.32565004222648E-02
581112833.333333	5.15049564268784E-02	3.63526692297716E-02	0.453015952138894	-0.873387674005574			0.45239194101476	-0.874092019405709	5.17501982987369E-02	3.30527008331354E-02
588195916.666667	5.12910192603237E-02	3.51603212969673E-02	0.442596688956828	-0.878733399502418			0.442189420290928	-0.877097564610054	5.16764162272177E-02	3.33249025261636E-02
595279000	5.29853295824013E-02	3.43300198488115E-02	0.431732047700799	-0.885934544655797			0.427012322474843	-0.887556070510774	5.26202181415782E-02	3.13055376177084E-02
602362083.333333	5.44739863861154E-02	3.36539450801958E-02	0.420194208854393	-0.890809594334354			0.419676675576282	-0.890593231302665	5.38696181380558E-02	3.21368814486973E-02
609445166.666667	0.055052224823825	3.33078554364752E-02	0.406046580922458	-0.896388161952778			0.405819498140483	-0.895546628225423	5.34591593122696E-02	3.13956569319225E-02
616528250	5.59918268808836E-02	3.30414213741982E-02	0.393725609284231	-0.902343618360843			0.393692248766195	-0.901090139961547	0.055299066538795	3.08309115775609E-02
623611333.333333	5.60167197663462E-02	3.22727545494529E-02	0.381683897805974	-0.906194225511675			0.38207108915527	-0.905807991383217	5.49361464079032E-02	0.029411449132658
630694416.666667	5.66648914046343E-02	3.04236012247703E-02	0.370374667678249	-0.910898336609899			0.369638568645188	-0.910168488546336	0.056640456295971	2.93923827197485E-02
637777500	5.75117147206113E-02	3.06772037839821E-02	0.358126783777363	-0.914864881675522			0.357803559141013	-0.915589467419065	5.65072860414788E-02	2.84624006812173E-02
644860583.333333	5.78421490727598E-02	2.95706282355803E-02	0.347722622679861	-0.920594797378551			0.343870705771463	-0.919825965642533	5.69532090711289E-02	2.75028986963501E-02
651943666.666667	5.99042543153776E-02	0.029580128581066	0.336244292809116	-0.923283931393291			0.333820984709928	-0.922701310160152	5.76691199901398E-02	2.69091462429823E-02
659026750	6.01590669851849E-02	2.81939842065095E-02	0.32144585213184	-0.928406514951653			0.318925199231736	-0.928970280719276	5.88044289320991E-02	2.62520310977518E-02
666109833.333333	5.95689510183131E-02	2.77183329910169E-02	0.309188496988632	-0.933033512801538			0.306851693331771	-0.932154483442442	5.95956058480824E-02	2.47581813758664E-02
673192916.666667	6.00207575284922E-02	2.68468012783893E-02	0.297442564049725	-0.935537562383316			0.295362836248949	-0.93637842081641	5.96370179170383E-02	2.44315988568034E-02
680276000	6.06781579292486E-02	2.54916664600785E-02	0.283722991793286	-0.941001427563071			0.282837912084269	-0.938167496642415	5.98282664367086E-02	2.29183431090112E-02
687359083.333333	6.08856149889116E-02	2.49445092517595E-02	0.269306493338916	-0.943556251159155			0.268997406151532	-0.943477119226381	6.02763448640734E-02	2.19480920891308E-02
694442166.666667	0.061416978223074	2.36789088714351E-02	0.257069559376575	-0.94689177842851			0.25761528681463	-0.946672425921492	6.03381295667878E-02	2.18732865531677E-02
701525250	6.20739817920009E-02	2.33435014717075E-02	0.246999269720455	-0.949405664306048			0.246897311832986	-0.950794792066577	0.060638874699113	2.13865136312984E-02
708608333.333333	6.08401570678548E-02	2.24641926209788E-02	0.23540284707469	-0.9523518050696			0.232744861903388	-0.954148060513029	6.19845561064442E-02	1.97351327210298E-02
715691416.666667	6.28158838604738E-02	2.19627457522971E-02	0.220926889147783	-0.956343466614877			0.222507925234166	-0.953329327745258	5.99368729757155E-02	1.91843653585274E-02
722774500	6.22345882742591E-02	2.05325600257427E-02	0.207349644921145	-0.960143895324529			0.207943608616603	-0.957550895789958	6.14689560369443E-02	1.92539220206787E-02
729857583.333333	6.29163521985662E-02	1.91664313626285E-02	0.195820627179286	-0.960483855764816			0.195871030478337	-0.95982779802013	6.19641936614342E-02	1.94601577039156E-02
736940666.666667	6.39225729844958E-02	1.87540270189105E-02	0.183030769837052	-0.96483676965663			0.182710801437213	-0.964593830793388	6.23506495147069E-02	1.72030012910081E-02
744023750	6.41645800049278E-02	1.72796775791188E-02	0.169043946611171	-0.964919718364674			0.169501416565838	-0.964274347976126	6.31421520334669E-02	1.71313164871491E-02
751106833.333333	6.50663247797734E-02	1.63029980301093E-02	0.156763729012359	-0.966192620247687			0.157428009561173	-0.967872539404919	6.34791970022518E-02	1.62818170112539E-02
758189916.666667	6.51609769913304E-02	1.52365687447513E-02	0.143364194695627	-0.967674452092774			0.143847212147827	-0.968136900601413	6.32916416805291E-02	1.50816188371462E-02
765273000	6.49610203262828E-02	1.37053156417652E-02	0.132596123456834	-0.971092464418504			0.129292758687081	-0.969390909341145	6.30368164846601E-02	1.38600018187613E-02
772356083.333333	6.47077818282243E-02	0.012644531614607	0.118161487062278	-0.97217107515242			0.117697015093714	-0.971426379816061	6.49720434912372E-02	1.37315157755158E-02
779439166.666667	6.45008625659806E-02	1.24079546143847E-02	0.104838624283161	-0.974505249359482			0.103632602777764	-0.972281816431403	6.29845820785781E-02	1.21038289416745E-02
786522250	6.45843996856803E-02	1.20376941845581E-02	9.21807198735831E-02	-0.974162559326745			9.18402671453193E-02	-0.974770742425081	6.36749844506494E-02	0.011763059365582
793605333.333333	6.52036066492056E-02	1.09299705355587E-02	7.88103040556154E-02	-0.975733475897927			7.80177062854226E-02	-0.975457440860801	0.064210140597967	1.03868186037894E-02
