# Hz S RI R 50
300000	-4.65805523893549E-03	6.34465621039557E-03	0.998647054387075	-2.66458612368101E-03			0.996776250197957	-6.4093544746915E-03	-2.60205553229469E-04	2.71522280024604E-03
7383083.33333333	-1.15254925535713E-04	1.53327294303457E-03	1.00233657436372	-1.19965729853229E-02			1.00187858476929	-1.14541096031463E-02	3.02891257680097E-04	1.09982431372087E-03
14466166.6666667	-2.4785349215199E-04	1.41597083937189E-03	0.99785468767225	-2.64598993820399E-02			1.00199648232879	-2.68374474614703E-02	2.95911706940215E-04	1.0581744756506E-03
21549250	-1.63023627141064E-04	2.94779445994866E-03	0.999392212620564	-3.80002982720345E-02			1.00169243560819	-3.59946316579232E-02	-3.9919298229775E-04	2.81774561901409E-03
28632333.3333333	-3.24102593243389E-04	4.08880703158271E-03	1.00090310099332	-4.73659025432604E-02			0.999082756960705	-4.86837908699973E-02	-5.98608663537812E-04	3.28133777175174E-03
35715416.6666667	-9.00926877748137E-04	5.5252812813067E-03	0.999392430528545	-6.19110255513961E-02			0.998002524071563	-5.71730206864116E-02	7.61138965699452E-05	5.17348066464572E-03
42798500	2.62246215760364E-05	6.33229485155886E-03	0.998438030113059	-6.99323075697188E-02			0.996761160888792	-7.13363318988969E-02	-9.05001536618794E-05	5.85560109427882E-03
49881583.3333333	-6.21024800217173E-04	7.11142406106696E-03	0.996148238613882	-8.19887296859587E-02			0.996651467061555	-8.20442091016338E-02	5.64496232093802E-04	6.70954857873045E-03
56964666.6666667	3.25406919162576E-05	8.3332824880774E-03	0.995855791225105	-9.29609596915816E-02			0.995434771497431	-9.29482838977934E-02	7.19622334063114E-04	7.55106078242559E-03
64047750	-3.9628561418704E-05	8.9311512259112E-03	0.995073329538766	-0.103968111751457			0.994619323775732	-0.105280877386578	6.71629110818659E-04	8.21539516966277E-03
71130833.3333333	6.74590779015779E-04	9.54295095480637E-03	0.994785053324631	-0.11743570503037			0.99248919172558	-0.117828045666127	1.36492400228938E-03	8.73013798251414E-03
78213916.6666667	8.53546273094698E-04	1.04653922782743E-02	0.992371206274216	-0.128434113735231			0.990483565557783	-0.127141875320304	1.72117922327853E-03	9.94742306265847E-03
85297000	1.04214058895937E-03	1.14279531867273E-02	0.990007072696687	-0.140329536292067			0.989977524455943	-0.138753869447664	1.39868010177184E-03	1.07662422815181E-02
92380083.3333333	1.04781988889218E-03	1.26048036025861E-02	0.988273999688264	-0.150443669612904			0.987039288598425	-0.150072776287429	1.46720722132757E-03	1.20731213676261E-02
99463166.6666667	0.001932737151491	1.35226830232157E-02	0.988457707495461	-0.163165420954447			0.986171263906922	-0.162575557378613	1.82047873104351E-03	1.20805167478897E-02
106546250	1.89586511975828E-03	1.39788564742227E-02	0.98518041961137	-0.174626228016462			0.984188987122345	-0.172917055717223	1.83707329534612E-03	1.34563552576667E-02
113629333.333333	2.17185661128511E-03	1.45255658586879E-02	0.982597028041828	-0.184721233278278			0.982258178755913	-0.185057820335675	3.31714694311992E-03	1.44663037577178E-02
120712416.666667	3.16702965721489E-03	0.015763431242162	0.980462803272749	-0.195950460279879			0.98079954729693	-0.195984250021239	3.31465615096601E-03	1.54337704698296E-02
127795500	3.16572223044849E-03	1.66440037581372E-02	0.977699664750789	-0.20703676082168			0.977397493713082	-0.206304063855018	3.00853023420893E-03	1.65322573092794E-02
134878583.333333	3.64534547284511E-03	0.017092162464234	0.972912530621421	-0.220029299792758			0.97550890916807	-0.218552032426913	3.01135607779258E-03	1.64061515825907E-02
141961666.666667	4.59838720539538E-03	0.018108857406856	0.973474480425862	-0.229942090232976			0.97372612554755	-0.230590597103195	4.18548752880472E-03	1.82207201907515E-02
149044750	5.18639583304496E-03	1.91885342905689E-02	0.97164087040931	-0.240071495676216			0.968130781370583	-0.238334257126775	3.6750244521487E-03	1.89731617673215E-02
156127833.333333	5.93641524902351E-03	2.07044818779417E-02	0.967347878105309	-0.251114317472426			0.966398427833317	-0.251213958658398	4.39707461048717E-03	1.95588345035275E-02
163210916.666667	6.55001523625279E-03	2.07445891631109E-02	0.963915325633232	-0.263432985571103			0.963335854666705	-0.261561398119607	4.16772913238636E-03	2.04843748430683E-02
170294000	6.67864209637974E-03	0.021876482235053	0.960145509156443	-0.272455707963686			0.960238685843105	-0.271049525589037	3.90268043373019E-03	2.12526380092031E-02
177377083.333333	8.0161202802941E-03	2.30265472882886E-02	0.958447053585322	-0.283251547637977			0.956595822935952	-0.283956168393669	4.84398819321239E-03	2.20744470647117E-02
184460166.666667	7.68513146205594E-03	2.20669899644498E-02	0.951415968909677	-0.296376230833505			0.95439506319461	-0.293541403242427	5.29358609319053E-03	2.35390495914452E-02
191543250	8.12501584659494E-03	2.35565020734405E-02	0.951564072609786	-0.30612567202839			0.951554427601943	-0.304376705984446	6.00162154844044E-03	2.34044828715855E-02
198626333.333333	8.9121213822194E-03	0.024565958195198	0.948438390349979	-0.316755663237974			0.946288962503163	-0.31421138834763	6.97747733612487E-03	2.49283627484138E-02
205709416.666667	9.37677924371605E-03	2.56258517485294E-02	0.943438602933949	-0.326730429763105			0.943945148568212	-0.326630188844668	6.88793550023132E-03	2.57382086787451E-02
212792500	1.05570494281363E-02	2.65881332006259E-02	0.940661184376339	-0.337439930192447			0.940997224419623	-0.337438225958242	7.48805225839094E-03	2.65559120457583E-02
219875583.333333	1.20263127849213E-02	2.71422042534368E-02	0.936288677432934	-0.349021709346553			0.936239633074017	-0.347770533117713	8.01673064259075E-03	2.76146809612976E-02
226958666.666667	1.29071014073037E-02	2.85519760468131E-02	0.931794190880826	-0.358323785808828			0.931292451756678	-0.358532807110829	8.53580093024282E-03	2.85465074919693E-02
234041750	1.34349863158548E-02	3.02798876090595E-02	0.928309749980473	-0.369008337329658			0.928823982627431	-0.367478039143481	9.32927778809315E-03	2.89897100389743E-02
241124833.333333	1.43789011677583E-02	2.91183254948733E-02	0.923447985430397	-0.379976874612055			0.925387876220131	-0.378221547584013	1.01384082440014E-02	2.86125537621512E-02
248207916.666667	1.52160075158288E-02	2.94774032168802E-02	0.92034958506436	-0.390746396850149			0.919777240144376	-0.389788632792585	1.06628937624201E-02	3.02990596488523E-02
255291000	1.61293553915687E-02	3.09176393392538E-02	0.914582076661095	-0.400905939057257			0.914350351563807	-0.398750818417881	1.07624601926442E-02	3.16344444302149E-02
262374083.333333	1.69674034583714E-02	3.14116244737632E-02	0.910025915550949	-0.408809458691428			0.910851988190905	-0.410345842409238	1.17346454414421E-02	3.17493893685319E-02
269457166.666667	1.77703663086504E-02	3.18584411551472E-02	0.903195436703289	-0.421799979068973			0.904181258616335	-0.419216717933799	1.24789512192525E-02	3.33147389002302E-02
276540250	1.78003139534778E-02	0.032030081465713	0.899114295318091	-0.430581893234157			0.899119268593719	-0.429749328108721	1.22368049594094E-02	3.37116290398141E-02
283623333.333333	0.019615556827842	3.30715907635449E-02	0.894764903728956	-0.44185607691257			0.8973222262967	-0.4394507052477	1.33514306272994E-02	3.48523481566365E-02
290706416.666667	2.13795917881859E-02	3.44923758700633E-02	0.891374412386606	-0.451174944203574			0.889470877837403	-0.449874047072649	1.43434285684839E-02	3.65362933417163E-02
297789500	2.17754997311661E-02	3.49100621590236E-02	0.884306393891999	-0.460382510247307			0.885280829663883	-0.459649205608445	1.44382226047768E-02	0.036809015246435
304872583.333333	0.023485108288576	3.46743417557361E-02	0.882146716760675	-0.471860167212091			0.87771465154575	-0.469091614660409	1.45266245185268E-02	3.66326063300747E-02
311955666.666667	2.53433279260394E-02	3.58216249230775E-02	0.876210392310083	-0.479098941085683			0.874366814248082	-0.478792670906534	1.54216784174375E-02	3.80847603927039E-02
319038750	2.51371246644721E-02	3.54589641052491E-02	0.870269950989241	-0.488874033622482			0.868954806600388	-0.489261168041526	1.66534895311724E-02	3.90011118689976E-02
326121833.333333	2.60492417879036E-02	3.59288300127102E-02	0.864293750499505	-0.498663141410318			0.863099011191156	-0.50025359458458	1.66925142446452E-02	3.86684291595328E-02
333204916.666667	2.80992389709965E-02	0.035423239468835	0.859361621126914	-0.510477196494833			0.858181671383921	-0.509024286437955	1.73115330345467E-02	4.02505420742608E-02
340288000	2.83143520881887E-02	3.56744328548492E-02	0.853365223454577	-0.518562813685259			0.853154996524227	-0.518510702743045	1.82666698500116E-02	4.10282521322878E-02
347371083.333333	2.97090819969218E-02	3.65322639508544E-02	0.844613014791115	-0.52952756533637			0.844841482235005	-0.527976815552101	0.018038962559181	4.10026117335678E-02
354454166.666667	3.20059026322966E-02	3.62084177435669E-02	0.840578214007342	-0.541421937852813			0.839933078979771	-0.535863836754701	1.95073371607143E-02	4.22103596871798E-02
361537250	3.22682639705817E-02	3.68843777283156E-02	0.833891829370772	-0.547562944410669			0.834228069301231	-0.547642284763291	2.07449701394937E-02	4.15983126555825E-02
368620333.333333	3.31064494166788E-02	3.73111418017385E-02	0.827943931361989	-0.557310108028553			0.829005737259113	-0.559633941393693	0.020970797264902	4.28291047803137E-02
375703416.666667	0.034858911708941	3.70898473431259E-02	0.822324202761182	-0.567605313924883			0.820668427107772	-0.566067627112611	2.18054517148722E-02	4.27105852274477E-02
382786500	3.60977855330725E-02	3.69914648791967E-02	0.815704729726626	-0.577607355584705			0.815222746654951	-0.577449733350531	2.38730715403065E-02	4.33446181307744E-02
389869583.333333	3.60050471998394E-02	3.75127978043598E-02	0.807890025648079	-0.58421225739712			0.809924432527179	-0.584418867095574	0.024849999011603	4.55340689770841E-02
396952666.666667	3.82032830235063E-02	3.77567513866565E-02	0.801814611996198	-0.593396198868154			0.801852826103941	-0.594010781103169	2.46119331983845E-02	4.45032572461361E-02
404035750	3.89986245631973E-02	0.037826098562415	0.794092958496129	-0.604628646326532			0.794977323721993	-0.602268819419313	2.57323198550741E-02	4.54364449760294E-02
411118833.333333	4.04155454901849E-02	3.76261200071224E-02	0.789671372655762	-0.612274766820282			0.785913872525413	-0.612661220631747	2.54137221472009E-02	4.65037647181934E-02
418201916.666667	4.23504303896501E-02	3.79980444575969E-02	0.781138676664216	-0.619601970522074			0.78115725460854	-0.62197492206038	2.63007424498184E-02	4.62513524510683E-02
425285000	0.043433181650752	3.76589873157038E-02	0.773294744528966	-0.629759174226929			0.770867886573814	-0.629575226861435	2.78447016067263E-02	4.64194785473227E-02
432368083.333333	0.044863571011728	0.037514325359385	0.765598939495951	-0.638410437139004			0.764088366452997	-0.637714575914008	2.88332238803835E-02	4.82607867942479E-02
439451166.666667	4.59526258930268E-02	3.75667880429909E-02	0.758495052217654	-0.646870209710555			0.758662274638322	-0.648037750809604	2.98242264849276E-02	4.80639293944498E-02
446534250	4.75590952554051E-02	3.80494519709552E-02	0.75041658621238	-0.655613351339228			0.752664804393915	-0.654462962261725	3.04662501504413E-02	4.98664308801482E-02
453617333.333333	4.82823464716363E-02	3.69239459381893E-02	0.743150144934192	-0.663147880683462			0.744497995788948	-0.664752271087299	3.17226953893496E-02	5.03664818310115E-02
460700416.666667	5.00718218730844E-02	3.66400585786245E-02	0.735077268601392	-0.672001348347269			0.736272972304775	-0.670968329243946	0.03260779429223	5.06254745420806E-02
467783500	5.17772476653318E-02	3.61435138349823E-02	0.729567990946494	-0.678851056257571			0.727840060864237	-0.678527465539936	3.21294963554817E-02	0.051055166209279
474866583.333333	5.26712757535248E-02	3.49447458246618E-02	0.718503521167413	-0.689354911927337			0.719928892213335	-0.687788845010075	3.39996417313088E-02	5.12197470896014E-02
481949666.666667	5.39889368470751E-02	3.53773249442552E-02	0.711022967217733	-0.696776638703841			0.712526571775294	-0.696973714374353	3.47001400165618E-02	5.22345005978955E-02
489032750	5.53000060749229E-02	3.56548571987509E-02	0.704834768642286	-0.703648120465103			0.703297774662587	-0.705494781308181	3.58406061479391E-02	5.19268115016549E-02
496115833.333333	5.53043626182516E-02	3.33191727484419E-02	0.695862710985816	-0.713308142415745			0.69589694836331	-0.712906410740864	3.80130511144373E-02	5.24749792418659E-02
503198916.666667	5.80106250829304E-02	3.32026697556781E-02	0.688154587737615	-0.718600101668193			0.68673585893036	-0.719221253547849	3.58561548540185E-02	5.25664980342399E-02
510282000	5.91663919443781E-02	3.09011058777743E-02	0.681281955779922	-0.729316015012236			0.677284914552955	-0.727049954510876	3.85041886981085E-02	5.28109828729448E-02
517365083.333333	6.09319437489078E-02	3.31851926435196E-02	0.670059335500333	-0.736505189949663			0.673110920529352	-0.736329382574971	3.99917601403185E-02	0.053682243204645
524448166.666667	6.13399071093422E-02	3.28235256143927E-02	0.661657622833887	-0.742988544156798			0.661546764248894	-0.744391919104521	0.041003291626714	5.30658842415545E-02
531531250	6.15957718668934E-02	3.28980962674171E-02	0.654728690104481	-0.750747640058103			0.652454860741477	-0.752403745271838	4.23653657000074E-02	5.32806163832183E-02
538614333.333333	6.38882003086144E-02	3.13657075116536E-02	0.645876881177267	-0.757441009352924			0.643304830563414	-0.757103794154906	4.29764572249522E-02	5.37791319353171E-02
545697416.666667	6.33978827838662E-02	0.030839677323165	0.636827829244589	-0.766905742755615			0.63795094806741	-0.765206733420086	4.37026891031627E-02	5.34975325788392E-02
552780500	6.58912121372315E-02	3.15130228715441E-02	0.627811740189159	-0.772297227115094			0.627865268006069	-0.772681627801544	4.51261244297668E-02	0.053032416498571
559863583.333333	6.73961683427488E-02	3.04684789850996E-02	0.617366070481796	-0.779806140907242			0.617582273441216	-0.779425771685511	4.50082749299796E-02	5.36549213598041E-02
566946666.666667	6.78180330267663E-02	2.95807207375256E-02	0.60712527843489	-0.785773679909552			0.609823173214464	-0.788619988281287	4.55705793035999E-02	5.37389038160619E-02
574029750	6.94944922103582E-02	2.72695729137664E-02	0.599628193252374	-0.793500310282869			0.601927032736979	-0.792725387863331	4.73846102643328E-02	5.48011773828572E-02
581112833.333333	7.03129442006148E-02	2.78451920600101E-02	0.591356837935026	-0.800903519569839			0.591369184516819	-0.800811908731463	4.88169848034035E-02	5.56297776589309E-02
588195916.666667	7.05641022759322E-02	2.61316248701334E-02	0.581705714904708	-0.804444592201322			0.582172432502839	-0.805471288805536	4.87436282062844E-02	5.62296316987765E-02
595279000	7.28376360160135E-02	2.52384760639168E-02	0.574442364060967	-0.813838054269926			0.570920586310303	-0.816594296914984	5.03670091762544E-02	5.52244857900714E-02
602362083.333333	7.47487462267913E-02	2.43713993186814E-02	0.564655773950367	-0.820114872488053			0.563047147186426	-0.820139068397994	5.15612418620746E-02	5.67265725324059E-02
609445166.666667	7.56193425572902E-02	2.35667385501424E-02	0.552732480687804	-0.825915055619108			0.553413043287203	-0.825619253061247	5.14221541804639E-02	5.63163707060944E-02
616528250	7.68635050091834E-02	2.28454697519706E-02	0.542792828625186	-0.833798609660488			0.542366122714914	-0.833218075985607	5.36854129787923E-02	5.68911490344422E-02
623611333.333333	7.72818527974795E-02	2.16173346090821E-02	0.534135969521688	-0.838680922915527			0.533333199119154	-0.838584513336696	0.053764241133493	5.58640592364206E-02
630694416.666667	7.85520705658404E-02	1.93735187494151E-02	0.524893131890229	-0.84631909053056			0.524341606367907	-0.844671880497381	5.56152063815884E-02	5.67834817093597E-02
637777500	7.96059995132515E-02	0.019285452819796	0.514572930792171	-0.850111692741652			0.512196295607393	-0.849968424182835	5.59388027944392E-02	0.056245196008719
644860583.333333	8.02395153981643E-02	1.74395698583435E-02	0.506152500330995	-0.856746750076825			0.503032447557296	-0.856344554949869	5.68239265634623E-02	5.59005797545938E-02
651943666.666667	8.23435072854966E-02	1.77323309059335E-02	0.495420470351668	-0.8610860511399			0.493975439043911	-0.859685455012649	5.78046191388119E-02	0.055865628800515
659026750	8.31862110857631E-02	1.59191108501974E-02	0.484685896350606	-0.867365921346365			0.482934376287207	-0.868313805601629	5.98295868805582E-02	5.63265226090304E-02
666109833.333333	8.28278386595175E-02	0.014948579122021	0.474885079983129	-0.874966711664972			0.471942589488653	-0.872997366098206	0.060875892630054	5.51749695003966E-02
673192916.666667	8.39929449208477E-02	1.36015814461206E-02	0.464834102084652	-0.878538423753454			0.464411050559135	-0.876597768236756	6.05518657812196E-02	5.53034709569033E-02
680276000	8.48098278102823E-02	1.21557272085932E-02	0.455960938518642	-0.883171894063422			0.452521825572469	-0.883264887119051	6.19866931525646E-02	5.45640581975635E-02
687359083.333333	8.56916405457842E-02	1.10476632307482E-02	0.441054631204875	-0.890703369765432			0.443469467466905	-0.888281426813099	6.28076502110044E-02	5.44453657426397E-02
694442166.666667	8.60639528363713E-02	9.46216993444878E-03	0.43076002924959	-0.893377055111509			0.433840887107201	-0.892837003812194	6.29744114096657E-02	5.48153713490521E-02
701525250	8.72748191810088E-02	8.61988169665753E-03	0.423593924556979	-0.898404189874728			0.424112328481166	-0.898165627604247	6.39313593530251E-02	5.52352579281019E-02
708608333.333333	8.67013891695922E-02	6.72017740800929E-03	0.41410322338731	-0.903405280380114			0.413921803318904	-0.904959257330491	6.60926106233715E-02	5.47855815121916E-02
715691416.666667	8.88873464936158E-02	6.23570798416823E-03	0.402990775580863	-0.908255242029363			0.40296481429572	-0.906151366354373	6.45078410033834E-02	5.40734526534652E-02
722774500	8.88031699875097E-02	4.05099576413222E-03	0.392743325708301	-0.911216082574006			0.391239068839316	-0.91244272195284	6.65288928945585E-02	5.52630858629789E-02
729857583.333333	9.01345786599291E-02	2.53091054693398E-03	0.381709685087018	-0.91516972324142			0.384215105590052	-0.916447657984249	6.69770148229739E-02	5.63961212245661E-02
736940666.666667	9.14615455524416E-02	1.62597727698915E-03	0.369712662529581	-0.920766356813146			0.369825780255256	-0.921813123412453	0.068702016258866	5.50020910503454E-02
744023750	9.20664180090634E-02	-4.75151503069077E-04	0.357748098177487	-0.924383082173275			0.36022344552225	-0.925581847036452	6.99859639582006E-02	5.59625665892795E-02
751106833.333333	9.36857392784021E-02	-1.71082543557604E-03	0.347909097453936	-0.927664789815389			0.349505085142428	-0.929625293349374	7.11686183214369E-02	5.58508798498981E-02
758189916.666667	9.42029296645827E-02	-3.73113095900589E-03	0.338216984665102	-0.932811162338146			0.338872615322974	-0.932363938147043	7.21896846895557E-02	5.53591288251067E-02
765273000	9.46339607401239E-02	-5.88312046389025E-03	0.328654744223843	-0.938299878885942			0.32604032362794	-0.936132934462261	7.28709827404738E-02	0.05428859230518
772356083.333333	9.46135470946674E-02	-7.55374432397423E-03	0.317585052056631	-0.939924566995838			0.314864388564216	-0.939311798184525	7.52217757414263E-02	5.51199098914952E-02
779439166.666667	9.45975768497748E-02	-8.85406890285543E-03	0.305531621654118	-0.943581507777014			0.304938445682906	-0.943731569037811	7.44421241123623E-02	5.36317529723968E-02
786522250	9.51711592538283E-02	-9.64144597559986E-03	0.293336754188808	-0.947689831329147			0.294683210714738	-0.948024746831788	7.58015677976149E-02	5.38589583669853E-02
793605333.333333	0.096029174229647	-1.09732016396359E-02	0.284254240257119	-0.950144889162872			0.282864641631969	-0.949682944777339	7.70122977260991E-02	5.31709700696338E-02
800688416.666667	9.65756478005913E-02	-1.26955293504445E-02	0.273545642296288	-0.955060908586765			0.2709526961243	-0.949757140556759	7.65537775207737E-02	5.18075629574409E-02
