# Hz S RI R 50
300000	-3.2943377556397E-03	7.59589601293238E-03	0.999133560714824	-6.11246995426386E-04			0.995756878460814	-5.25452133802434E-03	1.00031865949383E-03	3.96478434426543E-03
7383083.33333333	2.00557356570379E-03	2.23231407178558E-02	0.999442555693673	-2.86084558580506E-02			0.999214704193459	-2.75161054111494E-02	2.37265889774566E-03	2.17888108671943E-02
14466166.6666667	3.85981355412525E-03	4.16580837496694E-02	0.995881236199037	-5.59755384115318E-02			0.997621401117781	-5.66521388901273E-02	4.44779393750479E-03	4.12441516083853E-02
21549250	6.78350338673573E-03	6.25216232011695E-02	0.993818299857908	-8.24634805191496E-02			0.992443151061133	-8.18262738086944E-02	6.88336305295057E-03	6.23005697989399E-02
28632333.3333333	1.03785367125895E-02	8.26896640904304E-02	0.989770062615903	-0.106447972334555			0.987703854689445	-0.107359421402776	1.05240527632014E-02	8.19836743469689E-02
35715416.6666667	1.47954204224963E-02	0.103067479531825	0.983747345921348	-0.131211698784847			0.984300744469198	-0.132056849073115	1.62706260385822E-02	0.102213668039422
42798500	0.021542575524901	0.122010027157142	0.977255512417216	-0.156700446855571			0.974972645998975	-0.156084772008431	2.20597660696238E-02	0.121290218921485
49881583.3333333	2.72533356427381E-02	0.140921440178339	0.970032954267634	-0.180925613406079			0.969656539891448	-0.182049237688925	0.029638382170995	0.139942134890467
56964666.6666667	3.55475367079542E-02	0.159125612312084	0.962460620090909	-0.203795768103379			0.961275216762933	-0.204696157619042	3.71488138104263E-02	0.157812714058239
64047750	4.39005796307324E-02	0.176516612385737	0.953001808417318	-0.227589575890011			0.951733138368902	-0.227639279668285	4.59117834651805E-02	0.175277322831846
71130833.3333333	5.33997919090087E-02	0.193180358470712	0.944036915905844	-0.250588819098607			0.942912080837045	-0.25045210426745	5.52162713892022E-02	0.191792826206828
78213916.6666667	6.34611660019237E-02	0.209675426354915	0.931911450214361	-0.272508971010062			0.93278943590235	-0.272850721009587	6.55008740560939E-02	0.208696202593187
85297000	7.45205278047123E-02	0.225367688787527	0.921594581419046	-0.29604364813076			0.921720983397132	-0.295290819866178	7.61581127829471E-02	0.224477851607761
92380083.3333333	8.52410964455976E-02	0.241053354954103	0.908363331632156	-0.315228139249537			0.909726898019649	-0.315170651882959	8.79268706622022E-02	0.239816623860278
99463166.6666667	0.097747943546992	0.254796299057509	0.896643450509323	-0.336055506650768			0.896009107293318	-0.33681419441389	9.92965469025279E-02	0.2531754901191
106546250	0.10984731357335	0.268958565314449	0.88399375193625	-0.355491388508032			0.882889006430205	-0.354416612993067	0.112044625209634	0.266854436530906
113629333.333333	0.122334571349202	0.281918125869102	0.870834794004575	-0.37374420602704			0.869233657477453	-0.373533039975326	0.126270243001783	0.279731184331059
120712416.666667	0.136628654115907	0.293581884908916	0.856657105901199	-0.390155063486484			0.856606833174987	-0.389645192784812	0.138453949573571	0.291972735867907
127795500	0.149874141209169	0.30553743881652	0.842201359948992	-0.40844792051508			0.840979026728536	-0.407705245792699	0.15262886005876	0.303944659770044
134878583.333333	0.163455171737858	0.31555171970733	0.825905344958407	-0.424593344813255			0.825244721910897	-0.422738712823497	0.166246445032696	0.313024777304643
141961666.666667	0.179000720781854	0.326046412245084	0.812207828765365	-0.440941218651047			0.811734881340522	-0.439736415156191	0.181827668629714	0.322925005258825
149044750	0.192911443059778	0.335665938261641	0.797198764500871	-0.45355592385691			0.795536413208073	-0.451851108090555	0.195211444091325	0.332945469530791
156127833.333333	0.207836107420829	0.344089446153721	0.781367222175382	-0.467454027841736			0.781402537077843	-0.467115288489032	0.210409713385549	0.341645545543027
163210916.666667	0.222415385709921	0.351391539639878	0.76461958678274	-0.481701797434107			0.765288740727743	-0.481164199727637	0.225063351652424	0.34805118454139
170294000	0.237027299961862	0.357499125346964	0.749398122931094	-0.492945109984978			0.749459892208382	-0.492480710910635	0.239260903453583	0.355692600100248
177377083.333333	0.252365331196447	0.364333027595189	0.733698790702621	-0.504614335938581			0.732432400836443	-0.503468880308888	0.254390473374416	0.36115164962503
184460166.666667	0.266440671877377	0.368460091304102	0.713460857962346	-0.517329331748749			0.717527675468383	-0.512638298283552	0.269938884027266	0.367133537031705
191543250	0.281747395507129	0.374837620442827	0.700524531768297	-0.528108642398523			0.701827457891619	-0.526958939353521	0.28558479875218	0.37094952512901
198626333.333333	0.297079827596903	0.378787210198345	0.684632504598069	-0.538075314141745			0.684932621133605	-0.535005409522342	0.299763560512674	0.375329328291743
205709416.666667	0.311282091999791	0.382662882385932	0.66828002194151	-0.54358977387723			0.670097968234066	-0.543918491616682	0.315179757032477	0.379080238457736
212792500	0.326944638705195	0.386438186487027	0.654261719738503	-0.553859799277873			0.655167641874204	-0.553749842487887	0.330585850178236	0.382452770564184
219875583.333333	0.341752146247507	0.387236538855974	0.638921726330801	-0.561375002826892			0.638067890480424	-0.56000749689973	0.344281056211866	0.383319285134268
226958666.666667	0.357070903585251	0.389510899849618	0.622317689081866	-0.568681221207176			0.622823120048698	-0.566840865176783	0.359261251566891	0.386621891839072
234041750	0.370633213176837	0.391113831947742	0.60855762864396	-0.573897911758797			0.609417630446859	-0.573864009608857	0.373376685908272	0.386352295338306
241124833.333333	0.384403689583206	0.390362584097003	0.59288481206582	-0.581537897384278			0.593232155592644	-0.578466091548332	0.386142283207594	0.386507558312651
248207916.666667	0.398249799470314	0.391334945184904	0.577478797408655	-0.586853197186751			0.577947752804769	-0.587827823047277	0.401842802600051	0.38507452703014
255291000	0.412011279861233	0.39063295051186	0.562331816900626	-0.593230270613583			0.561125504585025	-0.590933631732096	0.414112429123818	0.385979743231248
262374083.333333	0.425071686569026	0.390496384236286	0.548075796687981	-0.595959372960884			0.548282940257949	-0.596654632259643	0.427704809539492	0.384476473295213
269457166.666667	0.438208340677743	0.38916116525334	0.532160347705298	-0.601438389399871			0.533948480334271	-0.598682799536121	0.440932417480332	0.384560049349324
276540250	0.451004115024767	0.388219941094823	0.518688725976888	-0.605109814240003			0.518747124906778	-0.604711060384635	0.454383735083721	0.382767569679339
283623333.333333	0.463011408706643	0.384766004926187	0.504074870056437	-0.607419936498297			0.506314432694993	-0.609253069128033	0.467599260468484	0.379844255484448
290706416.666667	0.477341731614758	0.383466170258728	0.492053703663511	-0.612350735945957			0.491402214641557	-0.611555467374851	0.480518655910213	0.378874029448657
297789500	0.488614145961568	0.380562781095274	0.476531478621016	-0.613366908838366			0.478686338174399	-0.615615260192223	0.491675025889726	0.376389993081896
304872583.333333	0.500664512402143	0.377090400120635	0.46493499722147	-0.618026265079179			0.464509511264836	-0.615396438780792	0.501832613140772	0.371384616927665
311955666.666667	0.511848690299258	0.375122457026661	0.453222742608186	-0.618127109097239			0.451087411703282	-0.619685709128269	0.513418312116637	0.36730146696277
319038750	0.523911742327331	0.370519442613376	0.438839611543527	-0.621346215305304			0.439272860196045	-0.621222578316472	0.526594770231733	0.364650491684386
326121833.333333	0.535198190917061	0.365863674220683	0.426803630051645	-0.623747298977925			0.426739873983001	-0.624792473911475	0.536194067589095	0.360042058811267
333204916.666667	0.54483905892694	0.360060076871155	0.413607637676756	-0.625444464405906			0.41555352956418	-0.625726253125412	0.548083599346066	0.356695455592155
340288000	0.555994733926698	0.355912169018818	0.401075222767176	-0.626580376843914			0.403738183613448	-0.626039920210425	0.558840585396387	0.352554820005372
347371083.333333	0.565742865355047	0.352322469406794	0.389619542235239	-0.627113038563535			0.390314004074273	-0.62788450686949	0.56697433333581	0.345279921936787
354454166.666667	0.57472657139328	0.347371887158788	0.378764474678727	-0.630097418841105			0.379079565441418	-0.628806346945705	0.578786843646355	0.342840286273797
361537250	0.584184989860336	0.342303331962297	0.36702862584421	-0.629403123479318			0.366627391777193	-0.63169919190026	0.588317617926307	0.33555275864245
368620333.333333	0.595080601472646	0.338557131622241	0.357313247658453	-0.630060874449698			0.356245844382225	-0.631812946608503	0.599691932683941	0.330530170887856
375703416.666667	0.605414893140238	0.332624107884272	0.346157950533867	-0.631297585149758			0.345830854644329	-0.630951095958663	0.605668807388246	0.325673526665121
382786500	0.612803618935879	0.326038834633698	0.335584691478096	-0.632300153250425			0.335642125910897	-0.633005785941548	0.616946656036198	0.319416905590319
389869583.333333	0.621237183609498	0.322401377469524	0.324853660359231	-0.630922739680092			0.327862161298653	-0.630897632571045	0.626092445570208	0.315037400422263
396952666.666667	0.630121475031024	0.31464617133546	0.315102516601641	-0.6308417101063			0.316048924313478	-0.631126819877818	0.631997694795339	0.307498741018321
404035750	0.636511465615081	0.308329546744818	0.30346934289655	-0.630526103826037			0.304351205001871	-0.629734611980598	0.640547372167266	0.301252239594016
411118833.333333	0.645108573969465	0.302758455345558	0.294834389434223	-0.630988481008996			0.293600561963667	-0.630556405675968	0.647145713961333	0.295172849771681
418201916.666667	0.653395232948088	0.296528553636039	0.286125714071512	-0.630714585351748			0.282659155857035	-0.631462745417863	0.654629027385399	0.286369518244724
425285000	0.660268214141386	0.291719599793487	0.276245811662154	-0.629684301064334			0.274628693536592	-0.630955797901423	0.663267645295408	0.280499675572655
432368083.333333	0.667934486627933	0.284613632947503	0.26697292836104	-0.630352943958257			0.265138049864168	-0.628887451703893	0.668352568841971	0.27524555854632
439451166.666667	0.673472786131069	0.277829521794638	0.257303801335677	-0.629094379924223			0.254690978171435	-0.632361211114253	0.679234953403135	0.267191259261948
446534250	0.679173067934644	0.271006617347804	0.250290694846871	-0.628182790753573			0.249142416412307	-0.628752925213329	0.684044309978449	0.261928722070118
453617333.333333	0.688230187777169	0.263606801789037	0.240035173204257	-0.629064100490078			0.240041572692474	-0.629542410156445	0.690749644755093	0.255746295281882
460700416.666667	0.692844872553256	0.255609709371807	0.230038400234721	-0.627574186564816			0.230815640128394	-0.627155911920932	0.6964852145506	0.249724776327702
467783500	0.698676132498681	0.248558799785301	0.222592970757089	-0.628095429869472			0.221557756752729	-0.626844427491274	0.700767102480121	0.24090574996142
474866583.333333	0.704477589506925	0.242683062344472	0.214978757858595	-0.627278898721938			0.214999684622463	-0.627291145810933	0.707465481405115	0.235452215727863
481949666.666667	0.708561366658343	0.233931612364357	0.206587294879799	-0.62479880744897			0.205841220584465	-0.626409077762974	0.713545782418533	0.227915218274335
489032750	0.716346247171572	0.228202483636162	0.198556028942449	-0.624533201038654			0.197024764602938	-0.625894683156471	0.717389347791028	0.219001171816383
496115833.333333	0.718691240395238	0.221419617931409	0.190428559215277	-0.624852362372095			0.189951771620802	-0.626466293534904	0.724030358001047	0.211839515907024
503198916.666667	0.72507641724322	0.214397822225429	0.184052022006463	-0.624335771033443			0.180505056561843	-0.624443921348675	0.727561423949735	0.204213637204396
510282000	0.729609059174843	0.205869237231494	0.176069089302572	-0.62510500840329			0.175053049016067	-0.622339237520319	0.730485248467263	0.199561699077662
517365083.333333	0.735353976334204	0.199396265865691	0.167644628895118	-0.624925367414398			0.167501446780627	-0.621787516246088	0.735811940686874	0.191465763697975
524448166.666667	0.738773932901275	0.193977049853929	0.160928877110486	-0.62168098364917			0.160285962028202	-0.621738524685354	0.740381479462191	0.181742937111475
531531250	0.740892078083816	0.186654245097411	0.152794351313631	-0.621985005825724			0.153267236699093	-0.620966298892556	0.744913066759113	0.175963590605664
538614333.333333	0.745937484700632	0.180335158690125	0.146795982569413	-0.61999368553964			0.14480545681592	-0.618826413117	0.747588686900784	0.167877978582932
545697416.666667	0.748111488591891	0.171106340775406	0.137747465474801	-0.62173162729975			0.139865999091849	-0.62051406840612	0.751666281192705	0.161852674959456
552780500	0.752314661401114	0.164989186495618	0.132383879169519	-0.617482230674205			0.131812608783899	-0.621285438742937	0.759646110623437	0.153399025590064
559863583.333333	0.759051461392415	0.157649124904001	0.124512374789015	-0.619827251314878			0.124487268318097	-0.618311878228513	0.758392203805542	0.145592154674897
566946666.666667	0.758589002451932	0.150397129857781	0.119446571034409	-0.616903255730987			0.116390509790977	-0.617926041979683	0.762262662189278	0.136032454016244
574029750	0.762515129184846	0.140612501660312	0.112178543773665	-0.617606395075156			0.1116852803377	-0.617385803621072	0.765567729959168	0.131420858083502
581112833.333333	0.763817993120957	0.134704320481679	0.105371921093877	-0.615233989920795			0.103936026393188	-0.614686585297178	0.767140939903354	0.124562200008364
588195916.666667	0.768247468884384	0.127634878209395	0.100029276635572	-0.615819490854966			9.87576445505447E-02	-0.613408420978174	0.76784187844037	0.11486727646937
595279000	0.770794381063676	0.119942881956562	9.38524991184077E-02	-0.61667476612696			8.93005579387156E-02	-0.615718813718294	0.771637574523953	0.105199201014163
602362083.333333	0.771354592779079	0.111581611266533	8.72817715140952E-02	-0.614981970759258			8.63884297321845E-02	-0.614060934436023	0.77215570558695	0.100567633952231
609445166.666667	0.774762853712175	0.104511925031764	7.93342671897712E-02	-0.614982123124192			0.078823614509672	-0.613649588343248	0.775472173829923	9.19923673865606E-02
616528250	0.776875664075546	9.70154521378407E-02	7.30678564222645E-02	-0.613710501649623			7.13115448083011E-02	-0.61330961199672	0.778479341358816	0.083161807170395
623611333.333333	0.778276362950381	9.05444236931058E-02	6.83213373319658E-02	-0.613357505779242			6.57517882711345E-02	-0.613278216633787	0.779779201468043	7.50853491379665E-02
630694416.666667	0.779818328447389	8.13229296490602E-02	6.09655435398291E-02	-0.612575959648342			6.07539335449903E-02	-0.612023515581694	0.78129901959496	6.94446540256987E-02
637777500	0.780876793000589	7.48743950314797E-02	5.48181577711033E-02	-0.611849350591339			5.36306532580125E-02	-0.611215718536134	0.78176015719737	6.07545525772212E-02
644860583.333333	0.781458161297116	0.06634308316912	5.01278655960609E-02	-0.612498221946384			4.68759229523515E-02	-0.61097207884487	0.784373484993052	5.20021104665049E-02
651943666.666667	0.786107271667058	6.13709431546538E-02	0.044900200287614	-0.611667624073738			4.41234918970735E-02	-0.610040349778067	0.784713406153132	4.63064327853055E-02
659026750	0.784937849068694	5.15593734890497E-02	3.72521058516284E-02	-0.609955945864671			3.57627181630972E-02	-0.611332546230971	0.785414084418709	3.86072325089068E-02
666109833.333333	0.784234620375799	4.44699221200441E-02	3.10442749863181E-02	-0.611564682806132			2.94052912266299E-02	-0.609988257057812	0.787156006982283	3.11303067272296E-02
673192916.666667	0.787431913323251	3.75860513456232E-02	2.54484762842205E-02	-0.611421741089931			2.34786639193874E-02	-0.6109476919239	0.7875862545104	2.29533224604039E-02
680276000	0.787253604943094	3.05103777903272E-02	1.98619866904301E-02	-0.610686453672427			1.81176293421124E-02	-0.609166883166638	0.78856765827956	1.44898596881463E-02
687359083.333333	0.787097156844488	2.17525391280967E-02	1.13456673658822E-02	-0.610795804460578			0.011687631470071	-0.61055226531856	0.789963094305531	5.21445232986744E-03
694442166.666667	0.789091217941915	0.012972462182364	7.2978166749166E-03	-0.611914816418175			7.2877036346042E-03	-0.610250411803799	0.789136009224125	6.85809522508909E-06
701525250	0.788159583181634	7.26934105958314E-03	1.47134082833011E-03	-0.609522301105995			4.976861529952E-04	-0.610649762456666	0.79051660669855	-9.59416754241483E-03
708608333.333333	0.790310066116983	-2.35954374818997E-03	-4.32414855569139E-03	-0.611740377046791			-4.92519266927641E-03	-0.610672837459772	0.789155988501403	-1.62686766418529E-02
715691416.666667	0.789238014208809	-7.62984685028024E-03	-1.04954682151612E-02	-0.610735719997383			-1.01433352959807E-02	-0.610731192269052	0.789583739417577	-2.47132520164299E-02
722774500	0.788045778163921	-1.45535077807414E-02	-1.67871343250617E-02	-0.610918396736387			-1.59176835650098E-02	-0.610314154753231	0.788244237433636	-0.029185015286946
729857583.333333	0.788709013635043	-2.13201061155757E-02	-0.022139539305486	-0.610431837340383			-2.33991578434231E-02	-0.610258307583342	0.787556513858165	-0.038183556293361
736940666.666667	0.787945813715743	-3.05847695268827E-02	-2.87447097948554E-02	-0.609795857358683			-2.98299829619171E-02	-0.610488177678279	0.786588058113684	-4.73395797390224E-02
744023750	0.788794004141612	-3.73708596553626E-02	-3.29873792687249E-02	-0.609787694759675			-3.42358958840032E-02	-0.609605057357353	0.786440195497803	-5.34540576532444E-02
751106833.333333	0.78679431854151	-4.39715096717143E-02	-3.99836178810621E-02	-0.608882100959951			-0.0398599751768	-0.610110879587492	0.784365888605836	-5.98929407096853E-02
758189916.666667	0.784862821461653	-5.44132245248923E-02	-4.56713311337387E-02	-0.610077139344087			-4.63835902136787E-02	-0.611333803662719	0.785026921524813	-0.069118068881382
765273000	0.785206801194343	-5.98552504863413E-02	-5.03871586869268E-02	-0.612498798015297			-5.33045330657679E-02	-0.609883462877665	0.783498636858132	-0.076085326210673
772356083.333333	0.784579819108466	-7.00992748188298E-02	-5.83452634357438E-02	-0.612109585722405			-0.058240199356854	-0.609209217744474	0.780584023740069	-8.20454762494648E-02
779439166.666667	0.781315449085147	-7.51781157988162E-02	-6.38619569085988E-02	-0.612284379263147			-0.065328898476647	-0.611033254165717	0.778756353521347	-9.23216790865214E-02
786522250	0.78041153946	-8.30232687554322E-02	-7.10356336258342E-02	-0.612118395468608			-6.97409009983305E-02	-0.611407182567086	0.777872097652916	-9.94198994302268E-02
793605333.333333	0.778786034177674	-8.84205706550003E-02	-7.60314099824943E-02	-0.612093547367052			-0.076146339087984	-0.611058660830385	0.776155914688393	-0.107307271203518
800688416.666667	0.778034652689297	-9.71906081752133E-02	-8.35639732034999E-02	-0.613882905098231			-8.28728142851319E-02	-0.611940244557134	0.774406112100141	-0.115066544354485
807771500	0.776060120707785	-0.104685375004838	-0.087579770287948	-0.613197034599476			-9.08488303020135E-02	-0.613628439496222	0.772567293544269	-0.12270681764842
814854583.333333	0.77136537063814	-0.112280302247813	-9.50668656720467E-02	-0.613923494509732			-9.64054409567828E-02	-0.612953864607942	0.76991387222286	-0.130452880154379
821937666.666667	0.770267435447986	-0.118973309723307	-0.100537462687897	-0.613808462963655			-0.102794781919908	-0.614380350849836	0.769873148479765	-0.137749226141023
829020750	0.767659389369467	-0.125865140280725	-0.107360296730122	-0.61410488286139			-0.108058606944447	-0.613405040715495	0.764982462059216	-0.145171417037222
836103833.333333	0.765782563397148	-0.1338289023776	-0.114820654802886	-0.616053206554334			-0.114985607873743	-0.615938686444405	0.761668724874156	-0.151479517070889
