# Hz S RI R 50
300000	-4.37544581366098E-03	5.60272785689818E-03	0.995330259551876	-4.26948367351388E-03			0.997891187831207	-6.2177009590414E-03	4.12722037457624E-04	2.3553911042369E-03
7383083.33333333	9.26571910000087E-05	-6.74902166651843E-03	1.00193549812502	-1.87658394752613E-02			1.0005170631286	-1.92669121154055E-02	5.71747652680205E-04	-7.22409341605901E-03
14466166.6666667	-5.47386061058902E-04	-1.47632645197472E-02	0.997018324295107	-4.15111675731848E-02			1.00034377995516	-4.10689692723063E-02	9.94474484793815E-05	-0.015281176374251
21549250	-1.35117440281326E-03	-2.10371414448845E-02	0.998941756426391	-5.94123020175208E-02			0.999136580506905	-5.89778160949359E-02	-1.20120711981195E-03	-2.14792770465011E-02
28632333.3333333	-2.54252492194402E-03	-2.78479306681187E-02	0.998005938038168	-7.71605109677583E-02			0.995049615872106	-7.93323009110043E-02	-2.52235321326899E-03	-2.89257577313998E-02
35715416.6666667	-4.55481097542973E-03	-3.42137308097686E-02	0.99533712563281	-9.59801855284536E-02			0.994877178384629	-9.43374539322412E-02	-2.94708791806306E-03	-3.49955766919907E-02
42798500	-5.24388716714904E-03	-0.041153416516823	0.993612891914913	-0.114157105128584			0.99192783577535	-0.114744021419228	-4.68813588316551E-03	-4.21079724734652E-02
49881583.3333333	-7.84384350328463E-03	-4.79603966193161E-02	0.989256607650106	-0.132458953440654			0.988566908716118	-0.13397081558684	-5.64794241026416E-03	-4.90038357977321E-02
56964666.6666667	-9.49693506375566E-03	-5.44159330978639E-02	0.986793701428644	-0.152494858940573			0.987105199759301	-0.152091543552576	-7.68020748298934E-03	-5.59266558853602E-02
64047750	-1.20749014789725E-02	-6.10443777692423E-02	0.983871609422904	-0.169880550795726			0.98334373664413	-0.171091249962438	-1.00375190666573E-02	-6.28214582097572E-02
71130833.3333333	-1.44623777163859E-02	-6.80750819199065E-02	0.979418958025651	-0.188703157097223			0.978872163705298	-0.189357773189077	-1.18151731280413E-02	-6.99614056038801E-02
78213916.6666667	-1.72479244922838E-02	-7.44774847786346E-02	0.976704752058112	-0.209479653317604			0.975368701239059	-0.206072327773666	-1.42545776277037E-02	-7.63268104237162E-02
85297000	-2.04145015939878E-02	-8.04147013229073E-02	0.970560992799388	-0.225821265494246			0.969998475516724	-0.224947163039565	-1.77417831158869E-02	-8.25635854363872E-02
92380083.3333333	-2.40583010513511E-02	-8.63149515826617E-02	0.965714592798563	-0.242596733160248			0.965168895447233	-0.2412358067549	-2.06924082824934E-02	-8.85230400648308E-02
99463166.6666667	-2.69099263645724E-02	-9.23751741513804E-02	0.960531533973476	-0.261779676473			0.960678050385422	-0.261803853584133	-2.42393704243502E-02	-9.55439605716963E-02
106546250	-3.13893312384478E-02	-9.84897789951037E-02	0.955569292363805	-0.278784399806883			0.954237975332064	-0.278443167857575	-0.027741517638959	-0.10120672508554
113629333.333333	-3.55093218757646E-02	-0.104268704390897	0.94882045736923	-0.296409890171813			0.948563935990421	-0.297544490317984	-3.04766700287416E-02	-0.107596899604618
120712416.666667	-0.039531980368055	-0.109696750704866	0.941544878615225	-0.313684694227498			0.942848330377982	-0.314104530236495	-3.45969481441439E-02	-0.112963979227097
127795500	-4.43125132633314E-02	-0.114827161929571	0.935209450152374	-0.329558359516395			0.936146785620718	-0.330198982686365	-3.89797885929454E-02	-0.118412937771024
134878583.333333	-4.91039171925124E-02	-0.120576848744594	0.926574865688558	-0.35022566867887			0.927514415300622	-0.347359321140711	-4.39414987425552E-02	-0.124734211504919
141961666.666667	-5.34671186227258E-02	-0.125522377546991	0.920489842923088	-0.36450540591491			0.922005882412254	-0.3634125419	-4.70871524466796E-02	-0.129368896096308
149044750	-0.058079578890431	-0.129983619665187	0.913211342311605	-0.37994017709244			0.912109590271364	-0.379309284885269	-5.28858943672928E-02	-0.134536046698139
156127833.333333	-6.31184484351785E-02	-0.134250989659678	0.904943169198133	-0.396768809880806			0.905365082224286	-0.396531035977934	-5.74916936923612E-02	-0.139875060385088
163210916.666667	-6.86128095602112E-02	-0.139217704044299	0.895917452708537	-0.413870584704346			0.896680310439319	-0.413612748871726	-6.30821796380769E-02	-0.144580653539316
170294000	-0.074414313580246	-0.143216948852914	0.888154856569007	-0.428724652928753			0.888097587258184	-0.42709952222879	-6.84894956756331E-02	-0.148978270763154
177377083.333333	-7.93338467357034E-02	-0.14661697823674	0.879547597083026	-0.444394498691658			0.876649308119604	-0.443541946756431	-7.37755076310327E-02	-0.153446659027441
184460166.666667	-8.61028483824077E-02	-0.151139708466015	0.866832819972823	-0.4585630359807			0.868983713762088	-0.458956547079141	-7.85927828739303E-02	-0.157295537345606
191543250	-9.21965620243228E-02	-0.15439132534491	0.859880524698409	-0.476296728804327			0.860809746697109	-0.474912892903252	-8.39461852960156E-02	-0.16224987469707
198626333.333333	-9.82494634753407E-02	-0.15765283332068	0.851733799285487	-0.490068383434573			0.851288881986426	-0.489818380131287	-8.93627566695643E-02	-0.166052630701658
205709416.666667	-0.104995147129355	-0.160543988730372	0.840906067098768	-0.503680342761776			0.839489092080315	-0.503713082403483	-9.53028889134583E-02	-0.169167871045923
212792500	-0.110349246602608	-0.162703545003536	0.830397810439178	-0.519555519510955			0.832618470755257	-0.519238825790542	-0.101222036957928	-0.172766362661684
219875583.333333	-0.116079330657715	-0.165617053271449	0.820443107651311	-0.533121660671861			0.821238888343052	-0.531848755691649	-0.106893681932974	-0.175335736227284
226958666.666667	-0.122328553103745	-0.167832457981414	0.808736682203116	-0.546204697694856			0.808181723290644	-0.54523698337586	-0.11312862805795	-0.178248189240208
234041750	-0.128859165056176	-0.16939785973695	0.798082668501865	-0.562772870354517			0.79805062093165	-0.559751961522668	-0.119477766593645	-0.181756335557107
241124833.333333	-0.13614930203184	-0.17255429845511	0.78699223632004	-0.575671125973947			0.787507535485059	-0.572759770999341	-0.125449325096426	-0.185402431381442
248207916.666667	-0.142851021205843	-0.175078279391577	0.776280366109081	-0.587876562944206			0.777079754137335	-0.586655771975676	-0.131837053938415	-0.187521906417519
255291000	-0.149589350412421	-0.175990566019913	0.764393621689423	-0.600962897157504			0.763759613257316	-0.598866699181701	-0.138982357180907	-0.18889161772253
262374083.333333	-0.156382247056192	-0.177056476390047	0.754036683529904	-0.611152848389118			0.752434980222981	-0.612079540196789	-0.14533807842411	-0.191611016111645
269457166.666667	-0.163748990028272	-0.178369397626499	0.740132571762011	-0.625316785251825			0.739338278390116	-0.623296211438641	-0.15172971101044	-0.19267787740333
276540250	-0.170654644377699	-0.17928680080898	0.72868546789081	-0.63644607828417			0.727052020678422	-0.635367430156763	-0.158955878341931	-0.194449216639288
283623333.333333	-0.176869303629668	-0.179470346646025	0.715825052153359	-0.648892034211909			0.718526694627496	-0.647889957195019	-0.164239442486893	-0.19592826138882
290706416.666667	-0.182938766298107	-0.17946442547168	0.704967194772521	-0.660444125354293			0.702385768445593	-0.659357071479282	-0.171843418653238	-0.196607820318371
297789500	-0.19061782375241	-0.179335668560293	0.69025492974158	-0.670322022086374			0.690130149780886	-0.670199938743449	-0.178733885087002	-0.197854286214925
304872583.333333	-0.196630215858325	-0.180111963213969	0.67802426986837	-0.681804446244621			0.677474205258462	-0.681913286329525	-0.186331481781447	-0.198388364751014
311955666.666667	-0.202778567926145	-0.179139182545401	0.665868577113762	-0.692184614263966			0.66570868582253	-0.689859837912012	-0.191937753381649	-0.19827260228882
319038750	-0.210927499675099	-0.179212917901469	0.653138153605721	-0.701694401852398			0.651532940507365	-0.700564332226319	-0.198384172730136	-0.198589358469132
326121833.333333	-0.217847426195644	-0.178244419593587	0.640422830083127	-0.712174664913677			0.639382520877781	-0.711962559943462	-0.205816272493316	-0.199034983679482
333204916.666667	-0.224098200117452	-0.178386399527864	0.627592432680654	-0.725024617671789			0.626422182397591	-0.722535874414714	-0.212312989197867	-0.198560896713553
340288000	-0.231381016882612	-0.175501256973181	0.614280279907503	-0.731498057659385			0.61421826371857	-0.731594042774056	-0.218625296564336	-0.197950107809819
347371083.333333	-0.238167759633106	-0.174248715673735	0.597896850203416	-0.743190370167185			0.598048200382931	-0.739630470062807	-0.225621144991453	-0.195973378495279
354454166.666667	-0.243569723204739	-0.173493689517688	0.585213643372652	-0.752883723542773			0.58555726016343	-0.750150859532397	-0.231825271036029	-0.196542111916542
361537250	-0.250925845387011	-0.170517299769492	0.570941844549011	-0.760628054791853			0.572017271446421	-0.756845737939452	-0.238256322771101	-0.196250355281798
368620333.333333	-0.257696134250754	-0.168719930793356	0.557650318633556	-0.768400744428539			0.557187966672919	-0.768286369546881	-0.245521560537355	-0.194229843355886
375703416.666667	-0.263986714740017	-0.167419165865687	0.544667360191077	-0.777121390048673			0.543615496893048	-0.775436261285476	-0.25179340811581	-0.193587298290685
382786500	-0.269847329863498	-0.164371127156751	0.530548853529345	-0.785481866089432			0.529838317106724	-0.784832016691062	-0.256779391672457	-0.191664995687129
389869583.333333	-0.27707144672091	-0.161391989917953	0.518100172756282	-0.793454360538027			0.518876711295959	-0.792354053780972	-0.263131725499276	-0.189029582305518
396952666.666667	-0.282852015557798	-0.157079000370892	0.502273816398097	-0.798605303247214			0.501963221385263	-0.79893313719392	-0.270346905440759	-0.187756614185084
404035750	-0.288397415490473	-0.155152754894477	0.487899176708326	-0.807541653041696			0.486684359111981	-0.806919446587382	-0.276070261275426	-0.185068524617453
411118833.333333	-0.294348287551363	-0.151987695150052	0.47260175191003	-0.813572932328478			0.473901399496681	-0.811935590774647	-0.283481814034343	-0.182106223732619
418201916.666667	-0.299259079851169	-0.148093124413247	0.458822193522618	-0.820410779476754			0.460217177563871	-0.821126006726011	-0.289087816355864	-0.180491196888105
425285000	-0.30624135653258	-0.144396422471733	0.44374279636094	-0.827276207225603			0.443997501071503	-0.825803661676405	-0.295046988946215	-0.177861324533427
432368083.333333	-0.311367004286728	-0.140522763013779	0.430527708660592	-0.832647678330374			0.429304834312111	-0.830847189683307	-0.301022091021189	-0.173564154061379
439451166.666667	-0.317024517899841	-0.136737802448014	0.41425947714848	-0.840065516653108			0.415864218387606	-0.837058440269412	-0.305496522815171	-0.170833656296339
446534250	-0.321352571187909	-0.131616265880902	0.400888526917632	-0.8436779573939			0.401908730768096	-0.84064476152253	-0.312277553058095	-0.166162752727641
453617333.333333	-0.327311430121965	-0.12808235231235	0.386685529887705	-0.84925302142571			0.385333718291637	-0.849527711484053	-0.317943078209661	-0.163443443936389
460700416.666667	-0.332232879360802	-0.123696856440455	0.373139861230759	-0.855816774591874			0.37270159679237	-0.85453069705467	-0.321849834150922	-0.160112839114203
467783500	-0.33631146153373	-0.118988817306722	0.355789055020825	-0.860205334074759			0.35951380364811	-0.858797386682166	-0.329474628467702	-0.155730495954916
474866583.333333	-0.342290412553773	-0.115082721546464	0.342588249014591	-0.865286412019859			0.343442871603963	-0.864630010190889	-0.332712552638676	-0.152703309289284
481949666.666667	-0.346339657211428	-0.10881257013558	0.328355298387575	-0.869664558591838			0.328903900121135	-0.867790596297378	-0.338135016915455	-0.147813961623129
489032750	-0.350347043134419	-0.103344547734806	0.3132754793522	-0.871966922546875			0.314248503625518	-0.873027703661758	-0.342368242043575	-0.144595011923907
496115833.333333	-0.357451840788631	-9.95573978655944E-02	0.299031609930263	-0.877232883364162			0.299759347249015	-0.876319081397031	-0.346551304790355	-0.139549661974875
503198916.666667	-0.359929574859605	-9.49795839713602E-02	0.284945281228199	-0.880735119302395			0.286588860736281	-0.87847525612736	-0.353249629987481	-0.134950197813247
510282000	-0.364473314190567	-9.00145845546277E-02	0.269024822476903	-0.883510748234979			0.267634402014234	-0.882830928104103	-0.356889443682804	-0.130752661268021
517365083.333333	-0.366248269971048	-8.24682723467589E-02	0.253413781498122	-0.888403692155515			0.254928768691736	-0.887816196040927	-0.360871869556579	-0.126398684255195
524448166.666667	-0.371422022407925	-7.61537110227559E-02	0.239118654456505	-0.891768530119602			0.241169727944706	-0.889692200407588	-0.364887983752938	-0.121852712193408
531531250	-0.374506261466414	-6.98644300032309E-02	0.224833467812722	-0.893725480184759			0.225647634474211	-0.893501249051324	-0.369247117717965	-0.116848875154917
538614333.333333	-0.378070449178413	-6.47171238791922E-02	0.209864468996817	-0.895848694246469			0.210338869411341	-0.895236443078091	-0.373005951300927	-0.112246903695833
545697416.666667	-0.383213302691006	-5.81111703136126E-02	0.195473451818265	-0.900535521421636			0.196205147681851	-0.897814920014306	-0.376471795990587	-0.106733203134963
552780500	-0.384335349226194	-5.17788397213553E-02	0.180945634954631	-0.900232380759836			0.179893282089994	-0.900878948498793	-0.381081631708007	-0.102480036134873
559863583.333333	-0.387134773156962	-4.62442860612974E-02	0.164872187849544	-0.901495850099773			0.164061404146935	-0.902168281659436	-0.384351100368764	-9.50129756541999E-02
566946666.666667	-0.389799928543723	-3.90176590691627E-02	0.151048311785418	-0.904738423591283			0.151663580196854	-0.903030717415474	-0.387688415505947	-9.06198088759834E-02
574029750	-0.392751090745264	-0.033974224691848	0.135918935284282	-0.906330228331354			0.137225061647748	-0.905280140239003	-0.39040908082744	-8.49149872245642E-02
581112833.333333	-0.394394065603326	-2.79979702475178E-02	0.122844843348759	-0.906725244331456			0.121174232274589	-0.909046419940683	-0.393667118551861	-7.84954546668268E-02
588195916.666667	-0.39795235058741	-2.06537234474603E-02	0.108670061636185	-0.907800674630587			0.107138544151253	-0.908643766989315	-0.39780839072895	-7.12030985590116E-02
595279000	-0.39839766371751	-1.38031337757097E-02	9.25137241110935E-02	-0.908870479521736			8.99231034772963E-02	-0.909191251693148	-0.399494154742439	-6.73638673583142E-02
602362083.333333	-0.399529691522193	-8.40421558454735E-03	7.94872433077438E-02	-0.911114149197618			7.90244373122598E-02	-0.910578999417882	-0.401303912458491	-6.19342640010722E-02
609445166.666667	-0.400912069959452	-1.90373121244132E-03	6.26324955018802E-02	-0.910218647810934			6.36886717940021E-02	-0.910766473839893	-0.404586673530234	-0.054949064822194
616528250	-0.402460576692893	4.76454675542776E-03	0.046504039790355	-0.912623751659581			4.74574179885421E-02	-0.908966075824047	-0.405707332723549	-4.85470188107586E-02
623611333.333333	-0.404316801627086	1.15244205453785E-02	3.31991135279153E-02	-0.910596409367368			3.44813051861734E-02	-0.908719207998141	-0.408599584185247	-4.33565752031307E-02
630694416.666667	-0.405290086741784	1.75139531514745E-02	0.018769266204575	-0.909019457675762			1.84685848097116E-02	-0.911003902799098	-0.409493558513788	-3.71893104551514E-02
637777500	-0.40564532159208	2.43417793251794E-02	3.98127051254459E-03	-0.909407513581148			3.72950090979244E-03	-0.908890635097321	-0.41287552933571	-2.99912057525452E-02
644860583.333333	-0.407749933202753	3.12038050831218E-02	-7.95310848764497E-03	-0.909911101858731			-1.02619155514154E-02	-0.90829657409958	-0.414566797747456	-2.37744191706013E-02
651943666.666667	-0.40555498776416	3.76465217296163E-02	-2.20984980300629E-02	-0.907896867820313			-2.32135025145832E-02	-0.907443228160914	-0.415442264195718	-1.82200143327717E-02
659026750	-0.406379256182615	4.32093892745019E-02	-3.74470453444881E-02	-0.906955101370543			-3.82828181965886E-02	-0.907940150876089	-0.414712443984488	-1.25342088807148E-02
666109833.333333	-0.40698697711647	5.13695668478218E-02	-5.28633464512696E-02	-0.906599069039471			-5.37784648335429E-02	-0.906603621206524	-0.415479157380006	-7.57246390704768E-03
673192916.666667	-0.40679943186945	5.79807605786855E-02	-6.61676154572077E-02	-0.904270546990541			-6.48341294607073E-02	-0.904872703407984	-0.416716876493902	7.8746812693365E-04
680276000	-0.405906895466953	6.40197211114312E-02	-8.29222044551194E-02	-0.90296769134679			-8.16078522990429E-02	-0.902820661107963	-0.418166734678951	6.86515492640796E-03
687359083.333333	-0.406359123962536	7.06908252347782E-02	-9.79706212362983E-02	-0.9024498490016			-9.51750635276468E-02	-0.900959886788956	-0.418735786766445	1.28284994863793E-02
694442166.666667	-0.405298675383614	7.73127997956388E-02	-0.110718528554928	-0.900062088014631			-0.109390773862349	-0.900414692397617	-0.41919440597341	2.00247747466796E-02
701525250	-0.404586415097487	8.33802278538458E-02	-0.124072102072693	-0.898705741945047			-0.123204314985527	-0.899880626058583	-0.419737768018918	2.66169391097552E-02
708608333.333333	-0.404836387320082	9.10116157014669E-02	-0.1356895048724	-0.896232866219212			-0.13859730159839	-0.897934888615129	-0.41808954521202	3.12837718149054E-02
715691416.666667	-0.401240432414756	9.62494881024255E-02	-0.151987676430898	-0.893526233443324			-0.150397562637427	-0.891896636584204	-0.419850621124257	4.02758797226921E-02
722774500	-0.401636045306581	0.103011285215891	-0.165650862831889	-0.890546842459673			-0.165610162610447	-0.889381426116068	-0.417845964526504	4.60735514628419E-02
729857583.333333	-0.399507073014946	0.108380000057463	-0.180502028719686	-0.887083932765021			-0.17847952015135	-0.890173074786433	-0.416370467785065	5.33670558231715E-02
736940666.666667	-0.396918295588147	0.114871127219544	-0.194276030666886	-0.884555494039853			-0.192135607400724	-0.8846155008325	-0.416598666925229	5.84622696378107E-02
744023750	-0.394673298126181	0.121036871398652	-0.208097807006698	-0.881058028975701			-0.207225422666417	-0.882887743626249	-0.414909787013487	6.61312451518263E-02
751106833.333333	-0.391898518467932	0.126274257025691	-0.223036819184618	-0.877454718683407			-0.220268408220969	-0.879627021637763	-0.411960532979906	7.08176670475441E-02
758189916.666667	-0.390366267852959	0.13368964409975	-0.236597329827574	-0.875432586875423			-0.235116333117459	-0.874027779266549	-0.411961547443632	7.81712159479956E-02
765273000	-0.388023789448806	0.138637314815881	-0.248910764554199	-0.87197726555711			-0.249439746434985	-0.869339312318283	-0.410935151398023	0.083888327548369
772356083.333333	-0.385393756648595	0.143776323025615	-0.263090167854893	-0.868321214541383			-0.26443210923829	-0.866852404642285	-0.407379440681019	8.94767058008029E-02
779439166.666667	-0.382765499294909	0.150545825503232	-0.277126948388804	-0.861610265331449			-0.276229122755177	-0.86278018793546	-0.406877881532557	9.54110488691797E-02
786522250	-0.379400117638087	0.157584047434491	-0.291498439437566	-0.859928297075078			-0.290342235632036	-0.860166651763578	-0.404699726389517	0.102598315974494
793605333.333333	-0.375606061582075	0.162700279188686	-0.305488785861271	-0.853588160478008			-0.306055225935896	-0.85458989642666	-0.401731158465674	0.108062581815601
800688416.666667	-0.373230655116913	0.167681131983755	-0.317559143542565	-0.849189880653789			-0.317255687368746	-0.846497091375131	-0.400055575930083	0.114411193275246
807771500	-0.369169858006032	0.175162138581285	-0.330125952229195	-0.842893462811772			-0.333731656443272	-0.845293914212782	-0.398027926853549	0.119928581315516
814854583.333333	-0.366520447080015	0.179236665146092	-0.344633489797077	-0.838804260855956			-0.346385670130966	-0.840654471317289	-0.394557542576796	0.126245721594364
