# Hz S RI R 50
300000	-4.18109290291076E-03	6.37731987169964E-03	0.998928300608529	-1.6610164064989E-03			0.996714760644672	-5.90308862565551E-03	-4.7661417112998E-04	2.53553670029302E-03
7383083.33333333	-1.02734444858729E-04	2.58405063070055E-03	1.00096072120668	-1.93817744773436E-02			1.00216860620759	-2.01892753042685E-02	4.62008316066058E-04	2.07299484886165E-03
14466166.6666667	-2.53259613490141E-04	3.57926551061409E-03	0.999605432149333	-4.33736192282866E-02			1.00029610382689	-4.35107485444896E-02	2.648505452857E-04	3.02784257251866E-03
21549250	-2.69676069142588E-04	6.22460266425757E-03	0.997606741508428	-6.28870373811992E-02			0.997463188330759	-0.061964675477009	-2.12665844631067E-04	6.02067985784221E-03
28632333.3333333	-3.78765780359877E-04	8.49272798910365E-03	0.997674121318386	-7.98669783393511E-02			0.995776712642661	-7.98911980471536E-02	-5.14476355360099E-04	7.67058282013673E-03
35715416.6666667	-7.82155219257162E-04	0.011070890652375	0.993673174039364	-9.90405363641951E-02			0.993049066876876	-9.72238044863895E-02	3.3986400406535E-04	1.04959910640072E-02
42798500	3.81678843967752E-04	1.30757827883038E-02	0.99147542813981	-0.118731761393114			0.989605416942477	-0.119374075503644	4.76897319574831E-04	1.24203544035166E-02
49881583.3333333	-1.38278880591351E-04	1.51261109999984E-02	0.988233692129524	-0.138234437221487			0.988055626176325	-0.138674914744036	1.25317992429198E-03	1.44826763834351E-02
56964666.6666667	7.67890596631457E-04	1.74876859860295E-02	0.985904033397624	-0.156790007556967			0.984863479045038	-0.157511027093604	1.78748173853534E-03	0.016437698375151
64047750	1.01032210271463E-03	1.93172621011186E-02	0.982376153738815	-0.17655070111582			0.980827731845209	-0.175288864632839	0.002137251581099	1.82839775604525E-02
71130833.3333333	1.97512591496025E-03	2.08218173236394E-02	0.97881367540823	-0.194879231279102			0.977136433412658	-0.195092821334885	3.21868155064408E-03	1.96823305721526E-02
78213916.6666667	2.73617090414764E-03	2.29201004736497E-02	0.974827927074219	-0.214246111487901			0.973534803657688	-0.214076356354009	3.97213754032428E-03	0.021975741626904
85297000	3.32040497160715E-03	2.50274227084512E-02	0.969807262897918	-0.23427272868869			0.968958730602743	-0.231257707052295	4.34340242443716E-03	2.39075025417734E-02
92380083.3333333	3.90325982247443E-03	2.73335055297312E-02	0.963669812847588	-0.252213351710524			0.963323497408137	-0.251116616782968	5.14219070137605E-03	2.62832154405068E-02
99463166.6666667	5.39576036117462E-03	2.91879712758465E-02	0.960482337979344	-0.269979677742867			0.958995046797142	-0.270358330096778	5.99002384683531E-03	0.027356647018123
106546250	5.90823082602512E-03	3.06013282437456E-02	0.953542008116934	-0.288693346830466			0.952792155667523	-0.286902556317984	6.82516894616486E-03	0.029718071240766
113629333.333333	6.74084358466359E-03	3.23851083172479E-02	0.947507486901172	-0.306623590756767			0.94741276876352	-0.306775129585157	9.08208567687983E-03	3.12029712872883E-02
120712416.666667	8.25024839650992E-03	3.44255678739227E-02	0.941797239258411	-0.324779837868543			0.942109607240611	-0.325275578645494	9.92246661208369E-03	3.32496843107071E-02
127795500	9.05731872076302E-03	3.62547354026189E-02	0.93359480291519	-0.341094975891113			0.934969518109596	-0.341616367808235	1.05958449141293E-02	3.53934563987787E-02
134878583.333333	1.02773120578133E-02	3.76111489115688E-02	0.925883416317478	-0.360264179759899			0.926449292389524	-0.361464899935283	1.13033626447455E-02	3.63764138861376E-02
141961666.666667	1.19265586515024E-02	3.93440312690036E-02	0.920234211530447	-0.376800923860788			0.920965430234704	-0.377534848682549	1.37540689590495E-02	0.03843777657023
149044750	1.34915359109492E-02	4.11938441123909E-02	0.914053289894401	-0.394409631416563			0.911180871024684	-0.393672586675198	1.41483093064728E-02	4.00254980731794E-02
156127833.333333	0.015357319173491	4.31202700668549E-02	0.903983069277963	-0.411956436437652			0.904690503086482	-0.411626443741693	0.015778981708233	4.12831332669513E-02
163210916.666667	1.63087137764098E-02	4.41043941940579E-02	0.895930611134757	-0.428357079460981			0.895820086607051	-0.42746815641963	1.65950908597005E-02	4.27825283168738E-02
170294000	1.75279300425432E-02	4.60200835229707E-02	0.886650060258196	-0.444582846845026			0.887473349577548	-0.442915190559705	0.01760948468003	4.44101726232717E-02
177377083.333333	1.99958248331483E-02	4.76251898617098E-02	0.87832303555458	-0.46152891541981			0.877043932944414	-0.460679221912337	1.95153904950482E-02	4.54941845214578E-02
184460166.666667	2.01886231860637E-02	4.78561332887668E-02	0.864898595093437	-0.478853451535094			0.87049909921153	-0.476099834832852	0.02137580906433	4.74069332192006E-02
191543250	2.19157886650611E-02	4.96964433680423E-02	0.858310526233809	-0.495770889079535			0.860197775590428	-0.495024994748881	2.30236896032782E-02	4.76863045435205E-02
198626333.333333	2.37672923242106E-02	5.13535323375447E-02	0.851084767821933	-0.507948738829117			0.850644341158844	-0.509800868930508	2.51732157452472E-02	4.90577648161069E-02
205709416.666667	2.54724961667479E-02	5.26404376502623E-02	0.838894071208421	-0.52574394615825			0.839052594443559	-0.525694439354003	0.026457539770259	5.05495059591705E-02
212792500	2.77462156569033E-02	5.36727949455328E-02	0.83014810543279	-0.5411248067146			0.830884710496139	-0.541985720290514	2.85280950349969E-02	5.13664440990933E-02
219875583.333333	3.00203858402513E-02	5.42306767917214E-02	0.820093248144864	-0.557477588008774			0.819235503507873	-0.555509012795259	3.02167267115151E-02	5.26963973550535E-02
226958666.666667	3.23160462838837E-02	5.57201864997359E-02	0.808376506378288	-0.57161157027615			0.808276749769815	-0.572102990507585	3.18847753916257E-02	5.35482043820845E-02
234041750	3.43725797936941E-02	5.71111067488609E-02	0.796870159579894	-0.586825842804503			0.797445082421742	-0.586286978555992	3.41048732358876E-02	5.38011966506406E-02
241124833.333333	3.54232937171337E-02	5.66749330812189E-02	0.785289168981445	-0.601543298571947			0.786041188824359	-0.599534854380859	3.53931231802309E-02	5.34914504748722E-02
248207916.666667	3.72187105083458E-02	5.70256873812423E-02	0.774046219783655	-0.615494161987916			0.775629719473605	-0.616726030123557	3.80866787446416E-02	5.47104798312857E-02
255291000	3.94042612643795E-02	5.81433666305615E-02	0.760548160999499	-0.630500748611858			0.761969743067044	-0.628384342205352	3.94515733693336E-02	5.61149811984815E-02
262374083.333333	4.11880867680896E-02	5.88625594832957E-02	0.750340391443038	-0.643469635537369			0.74914283497086	-0.644258302513175	4.13245652689232E-02	5.57253313341647E-02
269457166.666667	4.30322962379866E-02	5.90547645500941E-02	0.736251145612381	-0.657955887206179			0.73570080842933	-0.657096999830171	4.33663694720042E-02	0.056691360601767
276540250	4.41504561541802E-02	5.97188375778418E-02	0.724611436899374	-0.672782771090781			0.721664956175972	-0.669426537259847	4.44914184102698E-02	5.68873192027974E-02
283623333.333333	4.68525941180314E-02	5.96793093881054E-02	0.711034955711165	-0.686839950808637			0.713591071109116	-0.683824215026882	4.70562972202988E-02	5.72137862445402E-02
290706416.666667	4.98895384522686E-02	6.00576479873832E-02	0.698530632866704	-0.698298230042443			0.698063733118503	-0.697625513390255	4.94845723401531E-02	5.80792080475785E-02
297789500	5.12412860513376E-02	6.03171041498431E-02	0.684462945607946	-0.708859603113771			0.68361645351938	-0.709492178371992	5.04259901386522E-02	5.79247790027081E-02
304872583.333333	5.35516682492691E-02	5.94990930854249E-02	0.670821875008958	-0.721801177180176			0.669977064229068	-0.721974425292313	5.17983737407367E-02	5.76140213027386E-02
311955666.666667	5.62296012912192E-02	5.93524586369567E-02	0.658247135771563	-0.73445989242904			0.657015301476169	-0.734060018261023	5.41502472590009E-02	5.79299644964683E-02
319038750	5.73525780128684E-02	5.93388454375766E-02	0.643412889398376	-0.746443573450317			0.641895660100095	-0.74567502503466	5.64281422384082E-02	5.75695345274138E-02
326121833.333333	0.058956361972743	5.89517819382242E-02	0.628509297183304	-0.758170739818976			0.627974220219911	-0.758460292273111	0.057287280291311	5.67156223823582E-02
333204916.666667	0.061176415344626	5.74019128571284E-02	0.614726916716557	-0.772302897465142			0.614244616018169	-0.770240944129493	5.98560420697357E-02	5.68496388591791E-02
340288000	6.25406164345552E-02	5.72687395431543E-02	0.599854672806023	-0.782437385571923			0.600328538091515	-0.780606195202849	6.15530008364586E-02	5.63030651874386E-02
347371083.333333	6.46340918728437E-02	5.68962056658131E-02	0.583138199894459	-0.792950084408853			0.58443849281257	-0.791157551450131	6.26362549726255E-02	5.56546081218134E-02
354454166.666667	0.066749214786997	5.51530056669393E-02	0.571502287427486	-0.803751682070356			0.570833744333506	-0.802288970257475	6.49035333699732E-02	5.52400376819241E-02
361537250	6.79516199885722E-02	5.50191863923519E-02	0.553279949934474	-0.813286531831567			0.555182551163723	-0.813148409029761	6.58893809728017E-02	5.36389220225591E-02
368620333.333333	6.90897658170403E-02	5.46774068370816E-02	0.538159928013864	-0.823250298192668			0.538318141386057	-0.822670264278714	6.74747704678924E-02	5.33990056196595E-02
375703416.666667	7.10626346599606E-02	5.30056605672813E-02	0.522459425080214	-0.833386552944361			0.522069294105177	-0.831834242959568	0.0682566984375	5.21276725191822E-02
382786500	7.25716830329216E-02	5.20285334463281E-02	0.506321267905426	-0.844343056222919			0.506963176629432	-0.844136086200983	7.09120092512986E-02	5.08808475691986E-02
389869583.333333	7.31281782446404E-02	5.23983261643742E-02	0.491502976773029	-0.851066196919854			0.493170080554688	-0.851275460558112	7.34105224593919E-02	5.10081437044983E-02
396952666.666667	7.54247829623133E-02	5.06725903337124E-02	0.475504207678794	-0.858773661973714			0.474741842288602	-0.861070582247302	7.33998228231081E-02	4.95436822645574E-02
404035750	7.64188734086141E-02	4.95272829973551E-02	0.458606141635614	-0.869497832825867			0.459359685078817	-0.869914940389641	7.51818745390722E-02	0.048673535207488
411118833.333333	7.76136333474896E-02	4.82096150020214E-02	0.4414711805738	-0.87639514174727			0.442248470464329	-0.874800642195503	7.58697644629843E-02	4.85503786169035E-02
418201916.666667	0.079922659101738	4.68203107234101E-02	0.42479216501665	-0.884670452543114			0.425346528562164	-0.886616844380298	7.69424810218624E-02	4.64040388789754E-02
425285000	8.06070450421592E-02	4.55234355198446E-02	0.408555524160105	-0.891589397261046			0.406776065814008	-0.892856294853074	7.81243000543291E-02	4.45575142391582E-02
432368083.333333	8.19042659253453E-02	4.40606018190067E-02	0.392648949064677	-0.900178473128283			0.390480451221415	-0.897972605508333	7.98851735040334E-02	4.45430334141899E-02
439451166.666667	8.28488975999845E-02	4.27432148684254E-02	0.374803114476787	-0.907269490429194			0.373331321965838	-0.908031142056267	8.07179388708135E-02	4.24953159700134E-02
446534250	8.42709317858937E-02	4.12668730665913E-02	0.356242692533042	-0.911614463083156			0.358756889290616	-0.911867387693615	8.21041002461429E-02	4.21992574319428E-02
453617333.333333	8.44159949724489E-02	3.98107185376321E-02	0.341901155799691	-0.919731290198461			0.340981010602899	-0.917764930341479	8.29710636016428E-02	4.02586589767174E-02
460700416.666667	8.55620936631844E-02	3.76573175298087E-02	0.320944279028774	-0.925353023563253			0.323030335253052	-0.924813081909913	8.36532677502308E-02	3.83073644320066E-02
467783500	8.62612890206542E-02	3.54966835913912E-02	0.304542495385103	-0.931801290536763			0.303291934129004	-0.930113867037075	8.36611954434256E-02	3.78769985566354E-02
474866583.333333	8.60512145906884E-02	3.35998201001636E-02	0.287011861251812	-0.937141195772415			0.287224191930883	-0.937001045933457	8.45663961774877E-02	3.52735537276548E-02
481949666.666667	8.68242411406434E-02	3.23347171282342E-02	0.269532711748671	-0.940967405347173			0.2691506311567	-0.941394939360718	8.54446874597383E-02	3.41899300835482E-02
489032750	8.75310323001529E-02	3.10504112610146E-02	0.252351397140545	-0.945052032062664			0.252042239524095	-0.947107980207979	8.52841709197251E-02	3.19196770900593E-02
496115833.333333	8.56783747045343E-02	2.90371205224831E-02	0.233705269284976	-0.94978507736796			0.234628421741723	-0.950911205776115	8.65003973521095E-02	2.96014318829431E-02
503198916.666667	8.68857528243625E-02	2.68045007979765E-02	0.217610699605129	-0.954074321881343			0.216718798160298	-0.95309509414078	8.46877854034658E-02	2.93824884112637E-02
510282000	8.59192258294732E-02	2.39877603335392E-02	0.199151780844656	-0.959132362315324			0.195589412841361	-0.957725040306347	8.56122801143003E-02	2.64896650886023E-02
517365083.333333	8.75305305801568E-02	2.34808696459388E-02	0.180898780727176	-0.962291791246417			0.17923453530846	-0.962213100718736	8.60144075739855E-02	2.47451115712621E-02
524448166.666667	8.67847355824827E-02	2.27519743323127E-02	0.160582321753625	-0.964129293064273			0.160368021790412	-0.963791556106789	8.54234406851571E-02	2.25349020578036E-02
531531250	0.086330024261402	2.19459652114697E-02	0.143573043542655	-0.967238985979206			0.144264854990138	-0.967293910990119	8.58650717131733E-02	2.09775430968077E-02
538614333.333333	8.59800121498298E-02	1.90818384517047E-02	0.125410391424169	-0.970009220884412			0.125810673198993	-0.967311812218095	8.52684108417499E-02	1.97322351985056E-02
545697416.666667	8.47861137163248E-02	1.78072660676671E-02	0.105339479439743	-0.972959591734196			0.108534593029449	-0.971586550592651	8.44158661640324E-02	1.77371470440908E-02
552780500	0.085716404448475	1.64163506339855E-02	9.00055314781501E-02	-0.973598180474907			0.089161697739214	-0.97235745720892	8.40023524167155E-02	1.53213523131552E-02
559863583.333333	8.51327607258438E-02	1.43313455113169E-02	6.98191074033216E-02	-0.971958194006258			6.99467447561895E-02	-0.974749988467742	8.31691427108518E-02	1.47637019005634E-02
566946666.666667	8.39367960926437E-02	1.29047750225839E-02	5.30362160618242E-02	-0.975160943669724			5.16942200822426E-02	-0.975492804819539	8.18379156239375E-02	1.28211247616071E-02
574029750	8.25909383134775E-02	9.84941910322442E-03	3.20659266853792E-02	-0.97696224239637			3.35431999463556E-02	-0.974617039452076	8.21755558735001E-02	1.13848729270725E-02
581112833.333333	8.23694608290396E-02	9.20423464287555E-03	1.56917876690768E-02	-0.976751206856702			1.53275028461395E-02	-0.977073645004967	8.18424054011531E-02	9.7623657376688E-03
588195916.666667	8.01719032799881E-02	7.89873444218339E-03	-1.97265405839973E-03	-0.975760428726847			-4.07452030344008E-03	-0.974643875348325	0.080782135241262	9.10365012694989E-03
595279000	7.95272131359678E-02	5.57376983714592E-03	-2.13788811245112E-02	-0.976158159438355			-2.57079278507482E-02	-0.976725554071114	7.86615741206954E-02	6.60251205562783E-03
602362083.333333	7.87941048965922E-02	3.75428077805061E-03	-3.77904733390594E-02	-0.976393999683469			-4.03903436194555E-02	-0.975787852565032	7.86699597081598E-02	5.50909696554316E-03
609445166.666667	7.71791061704294E-02	2.76773196750228E-03	-6.01343370570632E-02	-0.974638801989671			-5.92349868565428E-02	-0.973804234470836	7.63982155379624E-02	5.06411791012301E-03
616528250	7.60676173474622E-02	1.41983934870692E-03	-7.78824006152781E-02	-0.974274034297445			-7.81757930869948E-02	-0.971869892340636	7.58167372048308E-02	2.99680919563989E-03
623611333.333333	7.41657867951259E-02	6.86326334486217E-04	-9.61524429514461E-02	-0.970170956632866			-9.39941515943012E-02	-0.970836432322425	7.33131486945807E-02	1.74174068417563E-03
630694416.666667	7.21737076033087E-02	-1.44940272279851E-03	-0.113555503028982	-0.969338221674082			-0.11523726988127	-0.968521560360095	7.25651973107823E-02	8.21894660511197E-06
637777500	0.071018717311227	-2.02204920926924E-03	-0.132673526821827	-0.966884021556485			-0.134307811944309	-0.964383209026022	7.00905869252034E-02	-4.71174824260926E-04
644860583.333333	0.068921249465941	-3.23631944995013E-03	-0.14985725147084	-0.964552983370637			-0.151954098781258	-0.962127066184934	6.83577949443587E-02	-1.60972759302213E-03
651943666.666667	6.87248280896814E-02	-4.42085942138725E-03	-0.167308258789715	-0.960632986788028			-0.167812402602886	-0.958585198936449	6.68972510574553E-02	-3.11951723238133E-03
659026750	6.60131504996528E-02	-5.78420716111713E-03	-0.186145582762403	-0.95636621582279			-0.189423716603084	-0.958173156662042	6.59045924321543E-02	-4.35989298589513E-03
666109833.333333	6.34726505164442E-02	-5.99572387034047E-03	-0.206334015806118	-0.95433820122464			-0.207653562745356	-0.952422620161584	6.32286490080549E-02	-5.85584054524129E-03
673192916.666667	6.14882271205794E-02	-6.89121177688007E-03	-0.223770377194832	-0.946371771027206			-0.224339164827529	-0.948155326130683	6.15282784606598E-02	-6.01641734438069E-03
680276000	5.93474180715401E-02	-8.10504989336073E-03	-0.241103054062409	-0.945602357175019			-0.240606493681421	-0.944193936168368	5.89992205872584E-02	-6.98988521560512E-03
687359083.333333	5.72242492774169E-02	-8.41459613347332E-03	-0.260409869842907	-0.938920993470518			-0.260399754603332	-0.93923125451703	5.71078604695099E-02	-7.78480298127428E-03
694442166.666667	5.47772651405974E-02	-9.45850343265978E-03	-0.277495569748617	-0.935059063519572			-0.277361997945814	-0.933377368285821	5.49987162945995E-02	-7.65444554590698E-03
701525250	5.32697253981599E-02	-9.82292817645825E-03	-0.295692868940186	-0.928526994143949			-0.295912272147147	-0.929720365647527	5.33829284545917E-02	-8.07520664199666E-03
708608333.333333	5.03786845806834E-02	-9.2362088636399E-03	-0.312643998238015	-0.922726161973968			-0.312907953825989	-0.923981084593221	5.09159364327838E-02	-9.90794329122051E-03
715691416.666667	4.88939962681808E-02	-1.04163034692241E-02	-0.329993885081557	-0.915911429542414			-0.327745734194293	-0.914797107334321	4.76276505541993E-02	-8.39475092116555E-03
722774500	4.56571746607973E-02	-0.010115630326923	-0.349832492543913	-0.908866348521613			-0.347666629248092	-0.907440504786888	4.64924491396589E-02	-8.44789210822268E-03
729857583.333333	4.33617907023932E-02	-1.06831791135742E-02	-0.364120924171983	-0.901557768567424			-0.365184704927886	-0.902786182977141	4.51439266011251E-02	-8.54666102130387E-03
736940666.666667	4.16271074159372E-02	-1.09155053377009E-02	-0.383001341914312	-0.894935295391497			-0.382724434691851	-0.891913720420941	4.17622755844762E-02	-9.16182865088831E-03
744023750	3.89656441277478E-02	-1.08295157485764E-02	-0.399521331221358	-0.886152535336605			-0.398824749635314	-0.886699436697611	4.02472256282664E-02	-8.98988103110232E-03
751106833.333333	0.037069652973527	-1.11528519261974E-02	-0.416374913276674	-0.878223646689734			-0.415800825664445	-0.880037642236463	0.037462868410511	-9.55885397797211E-03
758189916.666667	3.47446765158231E-02	-1.07718087693031E-02	-0.433063638804677	-0.871826842401094			-0.432704605377205	-0.871655205878339	3.49061847901983E-02	-8.73627131759513E-03
765273000	3.13568568731188E-02	-0.010524518566185	-0.448829904567027	-0.864530692137682			-0.44910123321328	-0.859795884424006	3.14896637624383E-02	-7.9886588873109E-03
772356083.333333	0.02842068502343	-9.58231569615989E-03	-0.465037483877349	-0.853006811398412			-0.467848885694541	-0.851268189510045	3.06416135230856E-02	-8.68283485219773E-03
779439166.666667	2.61237250592946E-02	-8.17242318611235E-03	-0.483668835453397	-0.844002884241102			-0.479717307889432	-0.842930248001184	2.55670616686261E-02	-6.90488808617691E-03
786522250	0.023946203905742	-6.63336000757672E-03	-0.498960800216968	-0.833463859202656			-0.500117883405314	-0.833522930914964	2.42922408795383E-02	-6.23703867620932E-03
793605333.333333	2.16679057943196E-02	-6.46371145068042E-03	-0.514489905088413	-0.825068606307757			-0.516325362594222	-0.825065010341566	2.17984377876037E-02	-6.14480673990203E-03
