# Hz S RI R 50
300000	-4.40226107865706E-03	6.35254503121455E-03	0.999220371597173	-4.45421355317665E-03			0.99876642531678	-4.9251488392824E-03	4.75048184448254E-04	2.80117152731764E-03
7383083.33333333	1.09078902662532E-04	2.80046618576968E-03	1.00020276305243	-2.08630309081275E-02			1.00083087675319	-2.12353038111786E-02	5.7138398632336E-04	2.3718299055791E-03
14466166.6666667	2.40909993384411E-04	3.89018087830636E-03	0.997631726748612	-4.50895239204017E-02			1.0001723663757	-4.50596150205114E-02	6.76490703614157E-04	3.40437300887606E-03
21549250	4.56804500263357E-04	6.42597731917711E-03	0.99797979435203	-6.40677600242869E-02			0.998673043802656	-0.062358009535655	2.14276803330699E-04	6.41207177798008E-03
28632333.3333333	5.41573625037558E-04	8.72883444066844E-03	0.996875201950493	-8.33741772082191E-02			0.995631956944979	-8.49004339305264E-02	2.7050878002103E-04	8.09854475690878E-03
35715416.6666667	4.17939976086005E-04	1.14151197273829E-02	0.994299086367665	-0.104535070884095			0.994434581313681	-0.103372095163631	1.26227327407957E-03	0.011010121295389
42798500	1.5694882338041E-03	1.33431052208075E-02	0.99405408714013	-0.123366156419873			0.99017181928856	-0.122747687435572	1.54090758022578E-03	0.012862324915205
49881583.3333333	1.41791888544108E-03	1.53740381465061E-02	0.988415289689684	-0.143221834630286			0.988963099039506	-0.143886719276279	2.76636761205042E-03	1.47239153819358E-02
56964666.6666667	2.39322007768229E-03	1.75979227071769E-02	0.986220152732682	-0.162653889026005			0.985782196938172	-0.163234986219819	3.52411932462314E-03	1.65942735158344E-02
64047750	2.86535927695244E-03	1.93788832556614E-02	0.983088869362743	-0.18184001509621			0.98227699863331	-0.183372988340819	4.15412401019594E-03	1.83475846989024E-02
71130833.3333333	3.63535675868651E-03	2.08750473695106E-02	0.979496002215658	-0.203260188403698			0.977637013005665	-0.20338589486671	5.58821257059596E-03	1.96274559748393E-02
78213916.6666667	4.27108329385458E-03	2.33732074915392E-02	0.973944373150194	-0.223397099161725			0.973524964270808	-0.220330680234316	6.67175808696848E-03	2.20200787076394E-02
85297000	5.02962764294444E-03	2.51717047563317E-02	0.968486535445206	-0.242014822793217			0.968425076382044	-0.241675431425206	7.60457043000462E-03	2.36114796928537E-02
92380083.3333333	5.52238778189243E-03	2.73868471060522E-02	0.96433034945121	-0.261539651038726			0.963299504842541	-0.260366362874625	8.72672662018628E-03	2.55144646634013E-02
99463166.6666667	0.006882003586909	2.89720012355269E-02	0.959091882266903	-0.28196391431671			0.957954415679969	-0.281789937294391	1.00974604945333E-02	2.62820046660926E-02
106546250	7.23521346244737E-03	3.03213146770002E-02	0.95255315821756	-0.300670620413445			0.951592913279064	-0.299195825272889	1.12670720422295E-02	2.81569419265004E-02
113629333.333333	7.9912198648225E-03	3.19128243503099E-02	0.94627393022126	-0.319564405169085			0.945653866357601	-0.320116456613252	1.38946580330812E-02	2.93209544665732E-02
120712416.666667	9.41279522986377E-03	3.36847245453481E-02	0.938482433495995	-0.338188290051004			0.939563706270544	-0.337632493266466	1.50618794701048E-02	3.06761918741251E-02
127795500	0.009841327680331	3.54822316337081E-02	0.931900922942495	-0.356631877461248			0.931069142447774	-0.356110154371856	1.62206975182776E-02	3.24627550403987E-02
134878583.333333	1.09090307027331E-02	3.66083995022445E-02	0.922976156757179	-0.377070731045497			0.923664013252326	-0.376580980820938	1.70796112031916E-02	3.28277653786335E-02
141961666.666667	1.25169245004837E-02	3.81250691985001E-02	0.917543646524854	-0.396686292734973			0.918211832145798	-0.39370179795475	1.99281418843232E-02	3.45449602625374E-02
149044750	1.39781076045659E-02	4.00396948988948E-02	0.91029395388232	-0.412659098393489			0.907520378053758	-0.410909832914635	2.06247865654861E-02	3.57841521994347E-02
156127833.333333	1.57573676921918E-02	0.041950247231911	0.901191962511856	-0.430682403959134			0.900047179881104	-0.429663192605517	2.23585371713854E-02	3.66707086215722E-02
163210916.666667	1.69891197113017E-02	4.29690237513927E-02	0.891260467354568	-0.448301741317903			0.890536237848532	-0.448531958422527	2.38375636429894E-02	3.80065731170433E-02
170294000	1.87119669259218E-02	4.49615706715064E-02	0.880353878434614	-0.466640687889743			0.88068016598125	-0.464482621221385	0.025476842373684	3.95132556555595E-02
177377083.333333	0.021591080412938	4.15106005614557E-02	0.870393047824327	-0.478764632133927			0.869170726478273	-0.478446973505999	2.95643997271986E-02	3.60820226398756E-02
184460166.666667	1.99974415594398E-02	4.54746595184513E-02	0.85931448904519	-0.501477797546294			0.863039425030809	-0.498513846151775	2.92560766055206E-02	4.01329022520439E-02
191543250	2.19014464957825E-02	4.75618181869271E-02	0.852541815545362	-0.521230197029143			0.852589627518791	-0.518667979162034	3.11763269842999E-02	4.03190984970148E-02
198626333.333333	0.023701561293856	0.049189681881642	0.841026727542462	-0.534929470097267			0.842601803919406	-0.533586260723057	3.37728817676764E-02	4.13027720052434E-02
205709416.666667	2.50539355131455E-02	5.07212055777421E-02	0.82952806034833	-0.550290202234177			0.829422705236113	-0.549884840942778	3.54560573892345E-02	4.20729460057373E-02
212792500	2.70526974693213E-02	5.18042991605336E-02	0.818708352382201	-0.566292299026529			0.820040920288942	-0.5668375375513	3.78270697327523E-02	4.23185797792098E-02
219875583.333333	2.91643543465863E-02	5.25022696270498E-02	0.806856457705738	-0.58333689432631			0.808823072415127	-0.582611432021902	4.00485310734656E-02	4.30987177018721E-02
226958666.666667	3.09353058596116E-02	5.40505430341261E-02	0.794274871712705	-0.598748504764983			0.795246846670346	-0.597016333044109	4.18512301288959E-02	4.26994435022379E-02
234041750	3.24958396679669E-02	5.56785040462421E-02	0.783283640194765	-0.614913056279046			0.784422809448728	-0.613676214013929	4.41122518463682E-02	4.22878526243361E-02
241124833.333333	3.31290173473533E-02	5.57458635647327E-02	0.769867272960292	-0.631002775003731			0.772008322106647	-0.627565922610271	4.55385270731493E-02	4.13948497557171E-02
248207916.666667	3.49427565541058E-02	5.64950861988262E-02	0.758102472252074	-0.645419507147431			0.75989955548655	-0.646000313180514	4.81957848573942E-02	4.17849645297192E-02
255291000	3.70666859125221E-02	5.76148477519831E-02	0.744247468763179	-0.659926974732871			0.745625984300058	-0.657729269992965	4.97531216240766E-02	4.24286353857907E-02
262374083.333333	3.87245032107948E-02	5.81116455404897E-02	0.732931807425632	-0.672435710876571			0.733002669421327	-0.673129349279295	5.19209301737747E-02	4.15617213312084E-02
269457166.666667	3.99482832299052E-02	5.81461595744475E-02	0.718110296800911	-0.688506033335812			0.718319117685285	-0.686131929499983	5.45243680072352E-02	4.16463167771014E-02
276540250	4.10407238963362E-02	5.85563951653616E-02	0.704077333722688	-0.701848305693762			0.702793785429943	-0.700964067546667	5.58100852545231E-02	4.08477606020915E-02
283623333.333333	4.34183031572178E-02	0.058829846601666	0.689776570837137	-0.716457705278554			0.692343030753929	-0.715567151156263	5.86375762998391E-02	4.01934692785365E-02
290706416.666667	4.62297557601406E-02	5.93593304412678E-02	0.676201525013015	-0.732063879425479			0.676410923150784	-0.728141664808634	6.09393400339098E-02	4.01942269455353E-02
297789500	4.73407924868633E-02	5.99586412944621E-02	0.660306899961628	-0.740937779700422			0.661164613444962	-0.742084145222843	6.20547957663325E-02	3.91966063196622E-02
304872583.333333	4.94698683443492E-02	5.92388558228718E-02	0.646632733444296	-0.756861243773201			0.645774126384422	-0.75412271143144	6.35101452156143E-02	3.80870671124024E-02
311955666.666667	5.21345024809192E-02	5.95543649399115E-02	0.632853319168279	-0.767868992921026			0.63069756923634	-0.767148443409115	6.60341248526053E-02	3.75777677993121E-02
319038750	5.30484727797892E-02	5.99191728078912E-02	0.616951321543036	-0.780238799502275			0.615188494393797	-0.778875196012884	6.85998764101227E-02	0.036751883615099
326121833.333333	5.49747851664445E-02	0.059768674185131	0.599954819213755	-0.792370105600061			0.599045191288317	-0.792840676110706	0.069771062202191	3.50449354448353E-02
333204916.666667	5.69912432699674E-02	5.85466021883886E-02	0.584565334006396	-0.80627548211585			0.58445948331462	-0.804963398264642	7.24529504095064E-02	3.43425886745598E-02
340288000	5.84157508706118E-02	5.88463142992367E-02	0.568015005736633	-0.814642364768409			0.567703744383267	-0.814150745168945	7.43299822180783E-02	3.28240111594554E-02
347371083.333333	6.07333176382081E-02	5.88009917947822E-02	0.549584028640022	-0.828035099802515			0.55153024495379	-0.825855577944595	0.075844063519391	3.12115792678356E-02
354454166.666667	6.23927045338321E-02	5.65163858033788E-02	0.53485029322117	-0.839068886141252			0.535475779499882	-0.835144767890027	7.80752140422867E-02	2.89972423661929E-02
361537250	6.27696367428516E-02	5.68780366548385E-02	0.517615703372869	-0.8468902963935			0.517809780221372	-0.846049035937749	7.85566722473595E-02	2.61006708066619E-02
368620333.333333	6.33646506360988E-02	0.056983718401479	0.501298646278365	-0.857282253934856			0.500820129817383	-0.857906792994926	7.99838566769853E-02	2.48105592544148E-02
375703416.666667	6.45333230578092E-02	5.60502944320212E-02	0.484620559125469	-0.867320539694677			0.484222092443575	-0.866185505410559	8.04288586994725E-02	0.022418375988377
382786500	0.065339864569627	5.58857211049054E-02	0.468063601091764	-0.878296995179568			0.466814798844478	-0.878457061722542	0.082410254739682	0.019883054619033
389869583.333333	6.58356334899828E-02	5.69243137146754E-02	0.451038831287212	-0.885402087470015			0.45152155499205	-0.885272905680811	8.42949580735711E-02	1.86960257462934E-02
396952666.666667	0.067993012122281	5.59366745422523E-02	0.432524173649157	-0.894597202033423			0.434360673233567	-0.894145582057391	8.35083933055548E-02	1.64042056516321E-02
404035750	6.87298058417086E-02	5.53955443460682E-02	0.413421666091218	-0.90323250835921			0.415518041705981	-0.900100708375343	8.46390912404357E-02	1.43236306282176E-02
411118833.333333	6.98283841496567E-02	5.45120905203855E-02	0.395795518582528	-0.911716289264616			0.397426936344629	-0.909737341927714	8.51235235628407E-02	0.013322633251704
418201916.666667	0.072127359072774	5.34500406008366E-02	0.378308735380061	-0.919034929635227			0.378164542527556	-0.919095897106464	8.55203581012406E-02	1.07145927529758E-02
425285000	7.25017903231994E-02	0.052743353744583	0.359148438053523	-0.925234232217271			0.358654665974661	-0.925642393074789	8.64587844099238E-02	8.32596045190135E-03
432368083.333333	7.39671932044712E-02	5.17680761421412E-02	0.341948800883708	-0.932961838158			0.340530641366541	-0.930074504586483	8.77300017904517E-02	6.89632811409849E-03
439451166.666667	7.51680747761369E-02	5.10203468281378E-02	0.321551796662295	-0.940219122829826			0.3203864073939	-0.939095354948129	8.82974495427572E-02	3.8641633206656E-03
446534250	7.68521982473421E-02	5.02754268516784E-02	0.301646102955897	-0.948006171696579			0.305459325609644	-0.944633210072864	8.95536558017954E-02	2.87687759337853E-03
453617333.333333	7.73141727232203E-02	4.90570325533629E-02	0.283409792846968	-0.951232274342122			0.284551528113288	-0.950975993472329	9.00866831202237E-02	-1.62576126769422E-05
460700416.666667	7.86212927379948E-02	4.75859908557093E-02	0.265467557033608	-0.956236981759769			0.265591140673117	-0.956177140086724	9.03976722943089E-02	-2.72072299606762E-03
467783500	7.96214150825763E-02	4.60425217326618E-02	0.24462856164754	-0.963068092032467			0.245257908099005	-0.957854421691397	8.96894771112704E-02	-4.09603693015075E-03
474866583.333333	7.96389129169654E-02	4.50487966650977E-02	0.225661889758745	-0.965912039795933			0.226789039626047	-0.964920498952757	9.03902068856576E-02	-7.34340362578393E-03
481949666.666667	8.11581203722049E-02	4.43948615787673E-02	0.207338291042263	-0.969381086976823			0.207078574689084	-0.969033620796396	9.09538244507096E-02	-9.33652473719475E-03
489032750	8.18475420689482E-02	4.33965694427499E-02	0.188715127794213	-0.972510816353126			0.187703308960262	-0.974702090452582	0.090820580221723	-1.26271626997515E-02
496115833.333333	8.01928990371413E-02	4.24771715494363E-02	0.166864021297571	-0.977989067412095			0.169449969617485	-0.977544588847855	9.13118834376598E-02	-1.63624580901526E-02
503198916.666667	8.11538808335078E-02	0.040882598392687	0.151435690271543	-0.979624395463119			0.148589149567115	-0.979252847635277	8.89148474939022E-02	-1.76202469269474E-02
510282000	8.00299946802617E-02	3.90545726745199E-02	0.130813105531989	-0.983830749139516			0.13010225202812	-0.980022293731849	8.85222076394486E-02	-2.15912881607241E-02
517365083.333333	8.18165991017014E-02	3.93646181300707E-02	0.110658963951891	-0.986257254949824			0.108885844248791	-0.983853097557459	8.77585640454896E-02	-2.41034858470949E-02
524448166.666667	8.15322660324955E-02	0.039613601717545	9.08775728570698E-02	-0.986855430489551			0.090418064099296	-0.986752902274634	8.60095803029976E-02	-2.70524189821794E-02
531531250	8.17963139783408E-02	3.99310918775177E-02	7.10609130241292E-02	-0.989948758303238			7.14440912634523E-02	-0.989808365069168	8.51912341920013E-02	-2.96475144891476E-02
538614333.333333	0.081266744415733	3.77203618245323E-02	5.14659922576327E-02	-0.99140708202215			5.09789973968395E-02	-0.988650443297198	8.39997642019462E-02	-3.19434279030429E-02
545697416.666667	8.07648184521725E-02	3.76607663539649E-02	3.00687472565577E-02	-0.995148683792297			3.20086292502054E-02	-0.991393338423234	8.19973930517234E-02	-3.43724874189694E-02
552780500	8.17655673951772E-02	3.64974364044353E-02	1.16586508824121E-02	-0.992402095189632			0.010624189071913	-0.992520211838501	8.03021869549484E-02	-3.77511644756823E-02
559863583.333333	8.18772801786786E-02	3.51387492372086E-02	-1.01576231541732E-02	-0.99148018658359			-9.34794500844685E-03	-0.991424747949235	7.85583211636176E-02	-0.038822440558015
566946666.666667	8.12338780760088E-02	3.46289198209864E-02	-2.74506488044411E-02	-0.992340589369024			-3.11501494174302E-02	-0.992103192269581	7.64470236837676E-02	-4.12494114324185E-02
574029750	8.04464776506355E-02	0.032315250167668	-4.93780368530669E-02	-0.990793344746217			-4.88631150253812E-02	-0.990247443865437	7.57761682887321E-02	-4.34952990394194E-02
581112833.333333	8.11239853378289E-02	3.22097013658011E-02	-6.77318692449272E-02	-0.990061412815216			-6.88547176129185E-02	-0.989185655175952	7.43385632272434E-02	-4.58519597435195E-02
588195916.666667	7.99533212960404E-02	3.19577148609367E-02	-8.74336176795613E-02	-0.988762759757351			-0.089084101206588	-0.98766066888848	7.26560095432296E-02	-4.71568381998753E-02
595279000	8.03050658896178E-02	2.97529674828379E-02	-0.108956726878309	-0.987279933327521			-0.11174785727719	-0.986110776720968	6.93126940887565E-02	-5.01953319305595E-02
602362083.333333	0.080718649150762	2.85387326623681E-02	-0.127097308425212	-0.985376446675918			-0.127728289783332	-0.982787550828184	6.86717996732692E-02	-5.20601734689542E-02
609445166.666667	7.99700829591024E-02	0.028110482710703	-0.149349748001438	-0.981670531492922			-0.147696756496456	-0.981467469569983	6.56962888862286E-02	-5.30013741037945E-02
616528250	0.080076200653	2.73643619127346E-02	-0.169343279681231	-0.978457343174305			-0.169766381278042	-0.974946614197869	6.38261869387571E-02	-5.55193344004067E-02
623611333.333333	0.079114807910362	2.69665444278287E-02	-0.188612855358871	-0.974776367322622			-0.188024110718991	-0.972777669255594	6.02630360680481E-02	-5.72021186430346E-02
630694416.666667	7.80611139073079E-02	2.53702257156358E-02	-0.207237228766088	-0.969938233520735			-0.207016364884732	-0.969780729307131	5.87213168453905E-02	-5.95806127083748E-02
637777500	7.75547673542748E-02	2.54498401550464E-02	-0.227501654684629	-0.965249581135964			-0.228683560187939	-0.963103168660937	5.50944017541159E-02	-6.03873205892501E-02
644860583.333333	7.67214435787043E-02	2.46901013349962E-02	-0.245693779890561	-0.961974495788926			-0.248150880815104	-0.958963130252847	5.17029123070317E-02	-6.24571904931946E-02
651943666.666667	7.71724588405778E-02	0.023462651499668	-0.264122181528952	-0.954900949610485			-0.264643416600555	-0.954094250089126	4.93472780942255E-02	-6.40065495081881E-02
659026750	7.47460444114213E-02	2.28511110817845E-02	-0.284596339142173	-0.949171634739329			-0.287063640209726	-0.947910204717356	4.61537292214282E-02	-6.59279820468043E-02
666109833.333333	7.27812926805207E-02	2.32353678552689E-02	-0.302528692143299	-0.944692714010339			-0.306684160293216	-0.942381526668668	4.21417102308855E-02	-6.74945397049509E-02
673192916.666667	7.16235656649109E-02	2.31827483768526E-02	-0.323009269523785	-0.936686756183234			-0.322449376290977	-0.937051357750934	3.87824747961097E-02	-6.73477744016861E-02
680276000	7.02143591144529E-02	2.28876783159753E-02	-0.34269208348158	-0.933501770837276			-0.341420825986582	-0.930364413903464	3.51248147804313E-02	-6.83846747666628E-02
687359083.333333	6.90509721099433E-02	0.023215850860946	-0.363668778577308	-0.924089744312975			-0.360903282251853	-0.923811313995373	3.18103996124425E-02	-6.92880893056641E-02
694442166.666667	6.77422767775186E-02	2.28186595600732E-02	-0.379965034946043	-0.917596305227963			-0.379136516616183	-0.91537245929292	2.85582081075065E-02	-6.89266501415554E-02
701525250	6.73801132181981E-02	2.28269225529202E-02	-0.398250122434463	-0.909737229277841			-0.398044772789543	-0.910508921699503	2.56644698243534E-02	-6.97323829726826E-02
708608333.333333	6.60287049042532E-02	2.41517385117563E-02	-0.414798801183787	-0.90105555769513			-0.417818265221599	-0.90167061718519	2.19252391360938E-02	-7.14634416089483E-02
715691416.666667	6.58452486840753E-02	2.28864101974481E-02	-0.434778253247409	-0.891935931517949			-0.432519897803266	-0.893475509256618	1.78347575694669E-02	-7.00048785766263E-02
722774500	6.40138728597689E-02	2.36522410474703E-02	-0.451949923847613	-0.882370165704123			-0.454961658679796	-0.882153088254969	1.53285143183137E-02	-7.01094556485104E-02
729857583.333333	6.30460878361007E-02	2.34241392984256E-02	-0.469967510549164	-0.872624979090897			-0.471226279118215	-0.874990363110935	1.28637690736538E-02	-7.06982092165745E-02
736940666.666667	6.31725009214347E-02	2.32398037825529E-02	-0.489160798716469	-0.863466900951405			-0.489495574599228	-0.863684916359004	8.26939476456248E-03	-7.09482946884705E-02
744023750	6.20685262931387E-02	0.023502507023188	-0.506974369659959	-0.852821274588054			-0.505746392885697	-0.853162699140517	5.80491412248239E-03	-7.07045046532782E-02
751106833.333333	6.16479547885103E-02	2.36193538108326E-02	-0.524108992290861	-0.842830829335008			-0.522375191051537	-0.843510540273862	1.87769573066633E-03	-7.08985128999968E-02
758189916.666667	6.10451111541615E-02	2.39222945739075E-02	-0.540139891496918	-0.831602459419605			-0.539961798893727	-0.83242213368364	-1.67097329339209E-03	-7.01086146973508E-02
765273000	5.93191852852094E-02	2.44794537519974E-02	-0.557750479327369	-0.823414892229083			-0.556549618663872	-0.819793781320187	-6.11658980004938E-03	-6.85478748566742E-02
772356083.333333	5.81614137308142E-02	2.53758144064531E-02	-0.574800505988991	-0.810907008325189			-0.57423003528266	-0.807412007194205	-8.33985128437679E-03	-6.93697262531538E-02
779439166.666667	5.77897410433242E-02	2.72813985832774E-02	-0.589348777464616	-0.79768392257941			-0.589797783694855	-0.794965700810372	-1.40762332871441E-02	-6.69812811544515E-02
786522250	5.71094651956048E-02	2.82960689828417E-02	-0.607049310129584	-0.784957729429412			-0.606485225690845	-0.785940483022046	-1.66186920862645E-02	-6.61297926822794E-02
793605333.333333	5.64669305076501E-02	2.85592427491792E-02	-0.623021979368749	-0.772538399937349			-0.622933060417193	-0.77158406709866	-2.06954000889911E-02	-6.55134491234415E-02
